DEBUG:pymodbus.transaction:Current transaction state - IDLE
DEBUG:pymodbus.transaction:Running transaction 1
DEBUG:pymodbus.transaction:SEND: 0x1 0x3 0x3 0xf2 0x0 0x6 0x64 0x7f
DEBUG:pymodbus.client.sync:New Transaction state 'SENDING'
DEBUG:pymodbus.transaction:Changing transaction state from 'SENDING' to 'WAITING FOR REPLY'
DEBUG:pymodbus.transaction:Changing transaction state from 'WAITING FOR REPLY' to 'PROCESSING REPLY'
DEBUG:pymodbus.transaction:RECV: 0x1 0x3 0xc 0xe1 0xc8 0x42 0x6c 0x7c 0x7a 0x40 0x62 0x0 0x0 0x0 0x0 0x4f 0x8c
DEBUG:pymodbus.framer.rtu_framer:Getting Frame - 0x3 0xc 0xe1 0xc8 0x42 0x6c 0x7c 0x7a 0x40 0x62 0x0 0x0 0x0 0x0
DEBUG:pymodbus.factory:Factory Response[ReadHoldingRegistersResponse: 3]
DEBUG:pymodbus.framer.rtu_framer:Frame advanced, resetting header!!
DEBUG:pymodbus.transaction:Adding transaction 1
DEBUG:pymodbus.transaction:Changing transaction state from 'PROCESSING REPLY' to 'TRANSACTION_COMPLETE'
DEBUG:pymodbus.transaction:Current transaction state - TRANSACTION_COMPLETE
DEBUG:pymodbus.transaction:Running transaction 2
DEBUG:pymodbus.transaction:SEND: 0x1 0x3 0x4 0x7c 0x0 0x6 0x5 0x20
DEBUG:pymodbus.framer.rtu_framer:Changing state to IDLE - Last Frame End - 1548902668.48, Current Time stamp - 1548902668.49
DEBUG:pymodbus.client.sync:New Transaction state 'SENDING'
DEBUG:pymodbus.transaction:Changing transaction state from 'SENDING' to 'WAITING FOR REPLY'
DEBUG:pymodbus.transaction:Changing transaction state from 'WAITING FOR REPLY' to 'PROCESSING REPLY'
DEBUG:pymodbus.transaction:RECV: 0x1 0x3 0xc 0x0 0x0 0x0 0x0 0x0 0x0 0x0 0x0 0x0 0x0 0x0 0x0 0x93 0x70
DEBUG:pymodbus.framer.rtu_framer:Getting Frame - 0x3 0xc 0x0 0x0 0x0 0x0 0x0 0x0 0x0 0x0 0x0 0x0 0x0 0x0
DEBUG:pymodbus.factory:Factory Response[ReadHoldingRegistersResponse: 3]
DEBUG:pymodbus.framer.rtu_framer:Frame advanced, resetting header!!
DEBUG:pymodbus.transaction:Adding transaction 2
DEBUG:pymodbus.transaction:Changing transaction state from 'PROCESSING REPLY' to 'TRANSACTION_COMPLETE'
DEBUG:pymodbus.transaction:Current transaction state - TRANSACTION_COMPLETE
DEBUG:pymodbus.transaction:Running transaction 3
DEBUG:pymodbus.transaction:SEND: 0x1 0x3 0x3 0xf2 0x0 0x6 0x64 0x7f
DEBUG:pymodbus.framer.rtu_framer:Changing state to IDLE - Last Frame End - 1548902668.51, Current Time stamp - 1548902669.45
DEBUG:pymodbus.client.sync:New Transaction state 'SENDING'
DEBUG:pymodbus.transaction:Changing transaction state from 'SENDING' to 'WAITING FOR REPLY'
DEBUG:pymodbus.transaction:Changing transaction state from 'WAITING FOR REPLY' to 'PROCESSING REPLY'
DEBUG:pymodbus.transaction:RECV: 0x1 0x3 0xc 0x58 0x36 0x42 0x70 0xbc 0x9a 0x40 0xcd 0x0 0x0 0x0 0x0 0x87 0x3
DEBUG:pymodbus.framer.rtu_framer:Getting Frame - 0x3 0xc 0x58 0x36 0x42 0x70 0xbc 0x9a 0x40 0xcd 0x0 0x0 0x0 0x0
DEBUG:pymodbus.factory:Factory Response[ReadHoldingRegistersResponse: 3]
DEBUG:pymodbus.framer.rtu_framer:Frame advanced, resetting header!!
DEBUG:pymodbus.transaction:Adding transaction 3
DEBUG:pymodbus.transaction:Changing transaction state from 'PROCESSING REPLY' to 'TRANSACTION_COMPLETE'
DEBUG:pymodbus.transaction:Current transaction state - TRANSACTION_COMPLETE
DEBUG:pymodbus.transaction:Running transaction 4
DEBUG:pymodbus.transaction:SEND: 0x1 0x3 0x4 0x7c 0x0 0x6 0x5 0x20
DEBUG:pymodbus.framer.rtu_framer:Changing state to IDLE - Last Frame End - 1548902669.47, Current Time stamp - 1548902669.48
DEBUG:pymodbus.framer.rtu_framer:Waiting for 3.5 char before next send - 2.005 ms
DEBUG:pymodbus.client.sync:New Transaction state 'SENDING'
DEBUG:pymodbus.transaction:Changing transaction state from 'SENDING' to 'WAITING FOR REPLY'
DEBUG:pymodbus.transaction:Changing transaction state from 'WAITING FOR REPLY' to 'PROCESSING REPLY'
DEBUG:pymodbus.transaction:RECV: 0x1 0x3 0xc 0x0 0x0 0x0 0x0 0x0 0x0 0x0 0x0 0x0 0x0 0x0 0x0 0x93 0x70
DEBUG:pymodbus.framer.rtu_framer:Getting Frame - 0x3 0xc 0x0 0x0 0x0 0x0 0x0 0x0 0x0 0x0 0x0 0x0 0x0 0x0
DEBUG:pymodbus.factory:Factory Response[ReadHoldingRegistersResponse: 3]
DEBUG:pymodbus.framer.rtu_framer:Frame advanced, resetting header!!
DEBUG:pymodbus.transaction:Adding transaction 4
DEBUG:pymodbus.transaction:Changing transaction state from 'PROCESSING REPLY' to 'TRANSACTION_COMPLETE'
DEBUG:pymodbus.transaction:Current transaction state - TRANSACTION_COMPLETE
DEBUG:pymodbus.transaction:Running transaction 5
DEBUG:pymodbus.transaction:SEND: 0x1 0x3 0x3 0xf2 0x0 0x6 0x64 0x7f
DEBUG:pymodbus.framer.rtu_framer:Changing state to IDLE - Last Frame End - 1548902669.5, Current Time stamp - 1548902670.45
DEBUG:pymodbus.client.sync:New Transaction state 'SENDING'
DEBUG:pymodbus.transaction:Changing transaction state from 'SENDING' to 'WAITING FOR REPLY'
DEBUG:pymodbus.transaction:Changing transaction state from 'WAITING FOR REPLY' to 'PROCESSING REPLY'
DEBUG:pymodbus.transaction:RECV: 0x1 0x3 0xc 0xfa 0x3b 0x42 0x78 0xbc 0x9a 0x40 0xcd 0x0 0x0 0x0 0x0 0xa1 0x69
DEBUG:pymodbus.framer.rtu_framer:Getting Frame - 0x3 0xc 0xfa 0x3b 0x42 0x78 0xbc 0x9a 0x40 0xcd 0x0 0x0 0x0 0x0
DEBUG:pymodbus.factory:Factory Response[ReadHoldingRegistersResponse: 3]
DEBUG:pymodbus.framer.rtu_framer:Frame advanced, resetting header!!
DEBUG:pymodbus.transaction:Adding transaction 5
DEBUG:pymodbus.transaction:Changing transaction state from 'PROCESSING REPLY' to 'TRANSACTION_COMPLETE'
DEBUG:pymodbus.transaction:Current transaction state - TRANSACTION_COMPLETE
DEBUG:pymodbus.transaction:Running transaction 6
DEBUG:pymodbus.transaction:SEND: 0x1 0x3 0x4 0x7c 0x0 0x6 0x5 0x20
DEBUG:pymodbus.framer.rtu_framer:Changing state to IDLE - Last Frame End - 1548902670.47, Current Time stamp - 1548902670.48
DEBUG:pymodbus.client.sync:New Transaction state 'SENDING'
DEBUG:pymodbus.transaction:Changing transaction state from 'SENDING' to 'WAITING FOR REPLY'
DEBUG:pymodbus.transaction:Changing transaction state from 'WAITING FOR REPLY' to 'PROCESSING REPLY'
DEBUG:pymodbus.transaction:RECV: 0x1 0x3 0xc 0x0 0x0 0x0 0x0 0x0 0x0 0x0 0x0 0x0 0x0 0x0 0x0 0x93 0x70
DEBUG:pymodbus.framer.rtu_framer:Getting Frame - 0x3 0xc 0x0 0x0 0x0 0x0 0x0 0x0 0x0 0x0 0x0 0x0 0x0 0x0
DEBUG:pymodbus.factory:Factory Response[ReadHoldingRegistersResponse: 3]
DEBUG:pymodbus.framer.rtu_framer:Frame advanced, resetting header!!
DEBUG:pymodbus.transaction:Adding transaction 6
DEBUG:pymodbus.transaction:Changing transaction state from 'PROCESSING REPLY' to 'TRANSACTION_COMPLETE'
DEBUG:pymodbus.transaction:Current transaction state - TRANSACTION_COMPLETE
DEBUG:pymodbus.transaction:Running transaction 7
DEBUG:pymodbus.transaction:SEND: 0x1 0x3 0x3 0xf2 0x0 0x6 0x64 0x7f
DEBUG:pymodbus.framer.rtu_framer:Changing state to IDLE - Last Frame End - 1548902670.5, Current Time stamp - 1548902671.45
DEBUG:pymodbus.client.sync:New Transaction state 'SENDING'
DEBUG:pymodbus.transaction:Changing transaction state from 'SENDING' to 'WAITING FOR REPLY'
DEBUG:pymodbus.transaction:Changing transaction state from 'WAITING FOR REPLY' to 'PROCESSING REPLY'
DEBUG:pymodbus.transaction:RECV: 0x1 0x3 0xc 0xe4 0x69 0x42 0x82 0x4d 0x3a 0x41 0x12 0x0 0x0 0x0 0x0 0x3 0xdc
DEBUG:pymodbus.framer.rtu_framer:Getting Frame - 0x3 0xc 0xe4 0x69 0x42 0x82 0x4d 0x3a 0x41 0x12 0x0 0x0 0x0 0x0
DEBUG:pymodbus.factory:Factory Response[ReadHoldingRegistersResponse: 3]
DEBUG:pymodbus.framer.rtu_framer:Frame advanced, resetting header!!
DEBUG:pymodbus.transaction:Adding transaction 7
DEBUG:pymodbus.transaction:Changing transaction state from 'PROCESSING REPLY' to 'TRANSACTION_COMPLETE'
DEBUG:pymodbus.transaction:Current transaction state - TRANSACTION_COMPLETE
DEBUG:pymodbus.transaction:Running transaction 8
DEBUG:pymodbus.transaction:SEND: 0x1 0x3 0x4 0x7c 0x0 0x6 0x5 0x20
DEBUG:pymodbus.framer.rtu_framer:Changing state to IDLE - Last Frame End - 1548902671.47, Current Time stamp - 1548902671.48
DEBUG:pymodbus.client.sync:New Transaction state 'SENDING'
DEBUG:pymodbus.transaction:Changing transaction state from 'SENDING' to 'WAITING FOR REPLY'
DEBUG:pymodbus.transaction:Changing transaction state from 'WAITING FOR REPLY' to 'PROCESSING REPLY'
DEBUG:pymodbus.transaction:RECV: 0x1 0x3 0xc 0x0 0x0 0x0 0x0 0x0 0x0 0x0 0x0 0x0 0x0 0x0 0x0 0x93 0x70
DEBUG:pymodbus.framer.rtu_framer:Getting Frame - 0x3 0xc 0x0 0x0 0x0 0x0 0x0 0x0 0x0 0x0 0x0 0x0 0x0 0x0
DEBUG:pymodbus.factory:Factory Response[ReadHoldingRegistersResponse: 3]
DEBUG:pymodbus.framer.rtu_framer:Frame advanced, resetting header!!
DEBUG:pymodbus.transaction:Adding transaction 8
DEBUG:pymodbus.transaction:Changing transaction state from 'PROCESSING REPLY' to 'TRANSACTION_COMPLETE'
DEBUG:pymodbus.transaction:Current transaction state - TRANSACTION_COMPLETE
DEBUG:pymodbus.transaction:Running transaction 9
DEBUG:pymodbus.transaction:SEND: 0x1 0x3 0x3 0xf2 0x0 0x6 0x64 0x7f
DEBUG:pymodbus.framer.rtu_framer:Changing state to IDLE - Last Frame End - 1548902671.51, Current Time stamp - 1548902672.45
DEBUG:pymodbus.client.sync:New Transaction state 'SENDING'
DEBUG:pymodbus.transaction:Changing transaction state from 'SENDING' to 'WAITING FOR REPLY'
DEBUG:pymodbus.transaction:Changing transaction state from 'WAITING FOR REPLY' to 'PROCESSING REPLY'
DEBUG:pymodbus.transaction:RECV: 0x1 0x3 0xc 0x69 0x11 0x42 0x8a 0x5c 0x37 0x40 0xb3 0x0 0x0 0x0 0x0 0xab 0x18
DEBUG:pymodbus.framer.rtu_framer:Getting Frame - 0x3 0xc 0x69 0x11 0x42 0x8a 0x5c 0x37 0x40 0xb3 0x0 0x0 0x0 0x0
DEBUG:pymodbus.factory:Factory Response[ReadHoldingRegistersResponse: 3]
DEBUG:pymodbus.framer.rtu_framer:Frame advanced, resetting header!!
DEBUG:pymodbus.transaction:Adding transaction 9
DEBUG:pymodbus.transaction:Changing transaction state from 'PROCESSING REPLY' to 'TRANSACTION_COMPLETE'
DEBUG:pymodbus.transaction:Current transaction state - TRANSACTION_COMPLETE
DEBUG:pymodbus.transaction:Running transaction 10
DEBUG:pymodbus.transaction:SEND: 0x1 0x3 0x4 0x7c 0x0 0x6 0x5 0x20
DEBUG:pymodbus.framer.rtu_framer:Changing state to IDLE - Last Frame End - 1548902672.48, Current Time stamp - 1548902672.48
DEBUG:pymodbus.client.sync:New Transaction state 'SENDING'
DEBUG:pymodbus.transaction:Changing transaction state from 'SENDING' to 'WAITING FOR REPLY'
DEBUG:pymodbus.transaction:Changing transaction state from 'WAITING FOR REPLY' to 'PROCESSING REPLY'
DEBUG:pymodbus.transaction:RECV: 0x1 0x3 0xc 0xbc 0x7a 0xc0 0x1c 0x0 0x0 0x0 0x0 0x0 0x0 0x0 0x0 0xd7 0xbb
DEBUG:pymodbus.framer.rtu_framer:Getting Frame - 0x3 0xc 0xbc 0x7a 0xc0 0x1c 0x0 0x0 0x0 0x0 0x0 0x0 0x0 0x0
DEBUG:pymodbus.factory:Factory Response[ReadHoldingRegistersResponse: 3]
DEBUG:pymodbus.framer.rtu_framer:Frame advanced, resetting header!!
DEBUG:pymodbus.transaction:Adding transaction 10
DEBUG:pymodbus.transaction:Changing transaction state from 'PROCESSING REPLY' to 'TRANSACTION_COMPLETE'
DEBUG:pymodbus.transaction:Current transaction state - TRANSACTION_COMPLETE
DEBUG:pymodbus.transaction:Running transaction 11
DEBUG:pymodbus.transaction:SEND: 0x1 0x3 0x3 0xf2 0x0 0x6 0x64 0x7f
DEBUG:pymodbus.framer.rtu_framer:Changing state to IDLE - Last Frame End - 1548902672.51, Current Time stamp - 1548902673.45
DEBUG:pymodbus.client.sync:New Transaction state 'SENDING'
DEBUG:pymodbus.transaction:Changing transaction state from 'SENDING' to 'WAITING FOR REPLY'
DEBUG:pymodbus.transaction:Changing transaction state from 'WAITING FOR REPLY' to 'PROCESSING REPLY'
DEBUG:pymodbus.transaction:RECV: 0x1 0x3 0xc 0x49 0xcb 0x42 0x91 0x52 0xb0 0x41 0xc 0x0 0x0 0x0 0x0 0x7f 0xc2
DEBUG:pymodbus.framer.rtu_framer:Getting Frame - 0x3 0xc 0x49 0xcb 0x42 0x91 0x52 0xb0 0x41 0xc 0x0 0x0 0x0 0x0
DEBUG:pymodbus.factory:Factory Response[ReadHoldingRegistersResponse: 3]
DEBUG:pymodbus.framer.rtu_framer:Frame advanced, resetting header!!
DEBUG:pymodbus.transaction:Adding transaction 11
DEBUG:pymodbus.transaction:Changing transaction state from 'PROCESSING REPLY' to 'TRANSACTION_COMPLETE'
DEBUG:pymodbus.transaction:Current transaction state - TRANSACTION_COMPLETE
DEBUG:pymodbus.transaction:Running transaction 12
DEBUG:pymodbus.transaction:SEND: 0x1 0x3 0x4 0x7c 0x0 0x6 0x5 0x20
DEBUG:pymodbus.framer.rtu_framer:Changing state to IDLE - Last Frame End - 1548902673.48, Current Time stamp - 1548902673.49
DEBUG:pymodbus.client.sync:New Transaction state 'SENDING'
DEBUG:pymodbus.transaction:Changing transaction state from 'SENDING' to 'WAITING FOR REPLY'
DEBUG:pymodbus.transaction:Changing transaction state from 'WAITING FOR REPLY' to 'PROCESSING REPLY'
DEBUG:pymodbus.transaction:RECV: 0x1 0x3 0xc 0xbc 0x7a 0xc0 0x1c 0x0 0x0 0x0 0x0 0x0 0x0 0x0 0x0 0xd7 0xbb
DEBUG:pymodbus.framer.rtu_framer:Getting Frame - 0x3 0xc 0xbc 0x7a 0xc0 0x1c 0x0 0x0 0x0 0x0 0x0 0x0 0x0 0x0
DEBUG:pymodbus.factory:Factory Response[ReadHoldingRegistersResponse: 3]
DEBUG:pymodbus.framer.rtu_framer:Frame advanced, resetting header!!
DEBUG:pymodbus.transaction:Adding transaction 12
DEBUG:pymodbus.transaction:Changing transaction state from 'PROCESSING REPLY' to 'TRANSACTION_COMPLETE'
DEBUG:pymodbus.transaction:Current transaction state - TRANSACTION_COMPLETE
DEBUG:pymodbus.transaction:Running transaction 13
DEBUG:pymodbus.transaction:SEND: 0x1 0x3 0x3 0xf2 0x0 0x6 0x64 0x7f
DEBUG:pymodbus.framer.rtu_framer:Changing state to IDLE - Last Frame End - 1548902673.51, Current Time stamp - 1548902674.46
DEBUG:pymodbus.client.sync:New Transaction state 'SENDING'
DEBUG:pymodbus.transaction:Changing transaction state from 'SENDING' to 'WAITING FOR REPLY'
DEBUG:pymodbus.transaction:Changing transaction state from 'WAITING FOR REPLY' to 'PROCESSING REPLY'
DEBUG:pymodbus.transaction:RECV: 0x1 0x3 0xc 0x7b 0x70 0x42 0x96 0x27 0x3 0x40 0xbc 0x0 0x0 0x0 0x0 0x96 0x48
DEBUG:pymodbus.framer.rtu_framer:Getting Frame - 0x3 0xc 0x7b 0x70 0x42 0x96 0x27 0x3 0x40 0xbc 0x0 0x0 0x0 0x0
DEBUG:pymodbus.factory:Factory Response[ReadHoldingRegistersResponse: 3]
DEBUG:pymodbus.framer.rtu_framer:Frame advanced, resetting header!!
DEBUG:pymodbus.transaction:Adding transaction 13
DEBUG:pymodbus.transaction:Changing transaction state from 'PROCESSING REPLY' to 'TRANSACTION_COMPLETE'
DEBUG:pymodbus.transaction:Current transaction state - TRANSACTION_COMPLETE
DEBUG:pymodbus.transaction:Running transaction 14
DEBUG:pymodbus.transaction:SEND: 0x1 0x3 0x4 0x7c 0x0 0x6 0x5 0x20
DEBUG:pymodbus.framer.rtu_framer:Changing state to IDLE - Last Frame End - 1548902674.49, Current Time stamp - 1548902674.49
DEBUG:pymodbus.client.sync:New Transaction state 'SENDING'
DEBUG:pymodbus.transaction:Changing transaction state from 'SENDING' to 'WAITING FOR REPLY'
DEBUG:pymodbus.transaction:Changing transaction state from 'WAITING FOR REPLY' to 'PROCESSING REPLY'
DEBUG:pymodbus.transaction:RECV: 0x1 0x3 0xc 0xbc 0x7a 0xc0 0x1c 0x0 0x0 0x0 0x0 0x0 0x0 0x0 0x0 0xd7 0xbb
DEBUG:pymodbus.framer.rtu_framer:Getting Frame - 0x3 0xc 0xbc 0x7a 0xc0 0x1c 0x0 0x0 0x0 0x0 0x0 0x0 0x0 0x0
DEBUG:pymodbus.factory:Factory Response[ReadHoldingRegistersResponse: 3]
DEBUG:pymodbus.framer.rtu_framer:Frame advanced, resetting header!!
DEBUG:pymodbus.transaction:Adding transaction 14
DEBUG:pymodbus.transaction:Changing transaction state from 'PROCESSING REPLY' to 'TRANSACTION_COMPLETE'
DEBUG:pymodbus.transaction:Current transaction state - TRANSACTION_COMPLETE
DEBUG:pymodbus.transaction:Running transaction 15
DEBUG:pymodbus.transaction:SEND: 0x1 0x3 0x3 0xf2 0x0 0x6 0x64 0x7f
DEBUG:pymodbus.framer.rtu_framer:Changing state to IDLE - Last Frame End - 1548902674.52, Current Time stamp - 1548902675.45
DEBUG:pymodbus.client.sync:New Transaction state 'SENDING'
DEBUG:pymodbus.transaction:Changing transaction state from 'SENDING' to 'WAITING FOR REPLY'
DEBUG:pymodbus.transaction:Changing transaction state from 'WAITING FOR REPLY' to 'PROCESSING REPLY'
DEBUG:pymodbus.transaction:RECV: 0x1 0x3 0xc 0x7e 0x84 0x42 0x99 0x58 0x26 0x41 0x6 0x0 0x0 0x0 0x0 0x26 0x2b
DEBUG:pymodbus.framer.rtu_framer:Getting Frame - 0x3 0xc 0x7e 0x84 0x42 0x99 0x58 0x26 0x41 0x6 0x0 0x0 0x0 0x0
DEBUG:pymodbus.factory:Factory Response[ReadHoldingRegistersResponse: 3]
DEBUG:pymodbus.framer.rtu_framer:Frame advanced, resetting header!!
DEBUG:pymodbus.transaction:Adding transaction 15
DEBUG:pymodbus.transaction:Changing transaction state from 'PROCESSING REPLY' to 'TRANSACTION_COMPLETE'
DEBUG:pymodbus.transaction:Current transaction state - TRANSACTION_COMPLETE
DEBUG:pymodbus.transaction:Running transaction 16
DEBUG:pymodbus.transaction:SEND: 0x1 0x3 0x4 0x7c 0x0 0x6 0x5 0x20
DEBUG:pymodbus.framer.rtu_framer:Changing state to IDLE - Last Frame End - 1548902675.48, Current Time stamp - 1548902675.49
DEBUG:pymodbus.client.sync:New Transaction state 'SENDING'
DEBUG:pymodbus.transaction:Changing transaction state from 'SENDING' to 'WAITING FOR REPLY'
DEBUG:pymodbus.transaction:Changing transaction state from 'WAITING FOR REPLY' to 'PROCESSING REPLY'
DEBUG:pymodbus.transaction:RECV: 0x1 0x3 0xc 0xbc 0x7a 0xc0 0x1c 0x0 0x0 0x0 0x0 0x0 0x0 0x0 0x0 0xd7 0xbb
DEBUG:pymodbus.framer.rtu_framer:Getting Frame - 0x3 0xc 0xbc 0x7a 0xc0 0x1c 0x0 0x0 0x0 0x0 0x0 0x0 0x0 0x0
DEBUG:pymodbus.factory:Factory Response[ReadHoldingRegistersResponse: 3]
DEBUG:pymodbus.framer.rtu_framer:Frame advanced, resetting header!!
DEBUG:pymodbus.transaction:Adding transaction 16
DEBUG:pymodbus.transaction:Changing transaction state from 'PROCESSING REPLY' to 'TRANSACTION_COMPLETE'
DEBUG:pymodbus.transaction:Current transaction state - TRANSACTION_COMPLETE
DEBUG:pymodbus.transaction:Running transaction 17
DEBUG:pymodbus.transaction:SEND: 0x1 0x3 0x3 0xf2 0x0 0x6 0x64 0x7f
DEBUG:pymodbus.framer.rtu_framer:Changing state to IDLE - Last Frame End - 1548902675.51, Current Time stamp - 1548902676.46
DEBUG:pymodbus.client.sync:New Transaction state 'SENDING'
DEBUG:pymodbus.transaction:Changing transaction state from 'SENDING' to 'WAITING FOR REPLY'
DEBUG:pymodbus.transaction:Changing transaction state from 'WAITING FOR REPLY' to 'PROCESSING REPLY'
DEBUG:pymodbus.transaction:RECV: 0x1 0x3 0xc 0x5f 0x29 0x42 0x9a 0xd2 0x71 0x40 0xb5 0x0 0x0 0x0 0x0 0xdd 0xd8
DEBUG:pymodbus.framer.rtu_framer:Getting Frame - 0x3 0xc 0x5f 0x29 0x42 0x9a 0xd2 0x71 0x40 0xb5 0x0 0x0 0x0 0x0
DEBUG:pymodbus.factory:Factory Response[ReadHoldingRegistersResponse: 3]
DEBUG:pymodbus.framer.rtu_framer:Frame advanced, resetting header!!
DEBUG:pymodbus.transaction:Adding transaction 17
DEBUG:pymodbus.transaction:Changing transaction state from 'PROCESSING REPLY' to 'TRANSACTION_COMPLETE'
DEBUG:pymodbus.transaction:Current transaction state - TRANSACTION_COMPLETE
DEBUG:pymodbus.transaction:Running transaction 18
DEBUG:pymodbus.transaction:SEND: 0x1 0x3 0x4 0x7c 0x0 0x6 0x5 0x20
DEBUG:pymodbus.framer.rtu_framer:Changing state to IDLE - Last Frame End - 1548902676.49, Current Time stamp - 1548902676.49
DEBUG:pymodbus.client.sync:New Transaction state 'SENDING'
DEBUG:pymodbus.transaction:Changing transaction state from 'SENDING' to 'WAITING FOR REPLY'
DEBUG:pymodbus.transaction:Changing transaction state from 'WAITING FOR REPLY' to 'PROCESSING REPLY'
DEBUG:pymodbus.transaction:RECV: 0x1 0x3 0xc 0x5a 0x22 0xc0 0x9c 0x0 0x0 0x0 0x0 0x0 0x0 0x0 0x0 0x17 0xea
DEBUG:pymodbus.framer.rtu_framer:Getting Frame - 0x3 0xc 0x5a 0x22 0xc0 0x9c 0x0 0x0 0x0 0x0 0x0 0x0 0x0 0x0
DEBUG:pymodbus.factory:Factory Response[ReadHoldingRegistersResponse: 3]
DEBUG:pymodbus.framer.rtu_framer:Frame advanced, resetting header!!
DEBUG:pymodbus.transaction:Adding transaction 18
DEBUG:pymodbus.transaction:Changing transaction state from 'PROCESSING REPLY' to 'TRANSACTION_COMPLETE'
DEBUG:pymodbus.transaction:Current transaction state - TRANSACTION_COMPLETE
DEBUG:pymodbus.transaction:Running transaction 19
DEBUG:pymodbus.transaction:SEND: 0x1 0x3 0x3 0xf2 0x0 0x6 0x64 0x7f
DEBUG:pymodbus.framer.rtu_framer:Changing state to IDLE - Last Frame End - 1548902676.52, Current Time stamp - 1548902677.46
DEBUG:pymodbus.client.sync:New Transaction state 'SENDING'
DEBUG:pymodbus.transaction:Changing transaction state from 'SENDING' to 'WAITING FOR REPLY'
DEBUG:pymodbus.transaction:Changing transaction state from 'WAITING FOR REPLY' to 'PROCESSING REPLY'
DEBUG:pymodbus.transaction:RECV: 0x1 0x3 0xc 0x95 0xcd 0x42 0x9a 0xc5 0xbc 0x41 0x1 0x0 0x0 0x0 0x0 0x69 0x9f
DEBUG:pymodbus.framer.rtu_framer:Getting Frame - 0x3 0xc 0x95 0xcd 0x42 0x9a 0xc5 0xbc 0x41 0x1 0x0 0x0 0x0 0x0
DEBUG:pymodbus.factory:Factory Response[ReadHoldingRegistersResponse: 3]
DEBUG:pymodbus.framer.rtu_framer:Frame advanced, resetting header!!
DEBUG:pymodbus.transaction:Adding transaction 19
DEBUG:pymodbus.transaction:Changing transaction state from 'PROCESSING REPLY' to 'TRANSACTION_COMPLETE'
DEBUG:pymodbus.transaction:Current transaction state - TRANSACTION_COMPLETE
DEBUG:pymodbus.transaction:Running transaction 20
DEBUG:pymodbus.transaction:SEND: 0x1 0x3 0x4 0x7c 0x0 0x6 0x5 0x20
DEBUG:pymodbus.framer.rtu_framer:Changing state to IDLE - Last Frame End - 1548902677.49, Current Time stamp - 1548902677.49
DEBUG:pymodbus.client.sync:New Transaction state 'SENDING'
DEBUG:pymodbus.transaction:Changing transaction state from 'SENDING' to 'WAITING FOR REPLY'
DEBUG:pymodbus.transaction:Changing transaction state from 'WAITING FOR REPLY' to 'PROCESSING REPLY'
DEBUG:pymodbus.transaction:RECV: 0x1 0x3 0xc 0xf7 0xca 0xc0 0x1b 0x0 0x0 0x0 0x0 0x0 0x0 0x0 0x0 0x43 0xad
DEBUG:pymodbus.framer.rtu_framer:Getting Frame - 0x3 0xc 0xf7 0xca 0xc0 0x1b 0x0 0x0 0x0 0x0 0x0 0x0 0x0 0x0
DEBUG:pymodbus.factory:Factory Response[ReadHoldingRegistersResponse: 3]
DEBUG:pymodbus.framer.rtu_framer:Frame advanced, resetting header!!
DEBUG:pymodbus.transaction:Adding transaction 20
DEBUG:pymodbus.transaction:Changing transaction state from 'PROCESSING REPLY' to 'TRANSACTION_COMPLETE'
DEBUG:pymodbus.transaction:Current transaction state - TRANSACTION_COMPLETE
DEBUG:pymodbus.transaction:Running transaction 21
DEBUG:pymodbus.transaction:SEND: 0x1 0x3 0x3 0xf2 0x0 0x6 0x64 0x7f
DEBUG:pymodbus.framer.rtu_framer:Changing state to IDLE - Last Frame End - 1548902677.52, Current Time stamp - 1548902678.46
DEBUG:pymodbus.client.sync:New Transaction state 'SENDING'
DEBUG:pymodbus.transaction:Changing transaction state from 'SENDING' to 'WAITING FOR REPLY'
DEBUG:pymodbus.transaction:Changing transaction state from 'WAITING FOR REPLY' to 'PROCESSING REPLY'
DEBUG:pymodbus.transaction:RECV: 0x1 0x3 0xc 0x3 0x16 0x42 0x9b 0x42 0x50 0x40 0x9e 0x0 0x0 0x0 0x0 0xd3 0xe4
DEBUG:pymodbus.framer.rtu_framer:Getting Frame - 0x3 0xc 0x3 0x16 0x42 0x9b 0x42 0x50 0x40 0x9e 0x0 0x0 0x0 0x0
DEBUG:pymodbus.factory:Factory Response[ReadHoldingRegistersResponse: 3]
DEBUG:pymodbus.framer.rtu_framer:Frame advanced, resetting header!!
DEBUG:pymodbus.transaction:Adding transaction 21
DEBUG:pymodbus.transaction:Changing transaction state from 'PROCESSING REPLY' to 'TRANSACTION_COMPLETE'
DEBUG:pymodbus.transaction:Current transaction state - TRANSACTION_COMPLETE
DEBUG:pymodbus.transaction:Running transaction 22
DEBUG:pymodbus.transaction:SEND: 0x1 0x3 0x4 0x7c 0x0 0x6 0x5 0x20
DEBUG:pymodbus.framer.rtu_framer:Changing state to IDLE - Last Frame End - 1548902678.49, Current Time stamp - 1548902678.5
DEBUG:pymodbus.client.sync:New Transaction state 'SENDING'
DEBUG:pymodbus.transaction:Changing transaction state from 'SENDING' to 'WAITING FOR REPLY'
DEBUG:pymodbus.transaction:Changing transaction state from 'WAITING FOR REPLY' to 'PROCESSING REPLY'
DEBUG:pymodbus.transaction:RECV: 0x1 0x3 0xc 0xf7 0xca 0xc0 0x1b 0x0 0x0 0x0 0x0 0x0 0x0 0x0 0x0 0x43 0xad
DEBUG:pymodbus.framer.rtu_framer:Getting Frame - 0x3 0xc 0xf7 0xca 0xc0 0x1b 0x0 0x0 0x0 0x0 0x0 0x0 0x0 0x0
DEBUG:pymodbus.factory:Factory Response[ReadHoldingRegistersResponse: 3]
DEBUG:pymodbus.framer.rtu_framer:Frame advanced, resetting header!!
DEBUG:pymodbus.transaction:Adding transaction 22
DEBUG:pymodbus.transaction:Changing transaction state from 'PROCESSING REPLY' to 'TRANSACTION_COMPLETE'
DEBUG:pymodbus.transaction:Current transaction state - TRANSACTION_COMPLETE
DEBUG:pymodbus.transaction:Running transaction 23
DEBUG:pymodbus.transaction:SEND: 0x1 0x3 0x3 0xf2 0x0 0x6 0x64 0x7f
DEBUG:pymodbus.framer.rtu_framer:Changing state to IDLE - Last Frame End - 1548902678.52, Current Time stamp - 1548902679.47
DEBUG:pymodbus.client.sync:New Transaction state 'SENDING'
DEBUG:pymodbus.transaction:Changing transaction state from 'SENDING' to 'WAITING FOR REPLY'
DEBUG:pymodbus.transaction:Changing transaction state from 'WAITING FOR REPLY' to 'PROCESSING REPLY'
DEBUG:pymodbus.transaction:RECV: 0x1 0x3 0xc 0xe4 0xbb 0x42 0x9a 0xc6 0x22 0x40 0xf4 0x0 0x0 0x0 0x0 0xd3 0x72
DEBUG:pymodbus.framer.rtu_framer:Getting Frame - 0x3 0xc 0xe4 0xbb 0x42 0x9a 0xc6 0x22 0x40 0xf4 0x0 0x0 0x0 0x0
DEBUG:pymodbus.factory:Factory Response[ReadHoldingRegistersResponse: 3]
DEBUG:pymodbus.framer.rtu_framer:Frame advanced, resetting header!!
DEBUG:pymodbus.transaction:Adding transaction 23
DEBUG:pymodbus.transaction:Changing transaction state from 'PROCESSING REPLY' to 'TRANSACTION_COMPLETE'
DEBUG:pymodbus.transaction:Current transaction state - TRANSACTION_COMPLETE
DEBUG:pymodbus.transaction:Running transaction 24
DEBUG:pymodbus.transaction:SEND: 0x1 0x3 0x4 0x7c 0x0 0x6 0x5 0x20
DEBUG:pymodbus.framer.rtu_framer:Changing state to IDLE - Last Frame End - 1548902679.5, Current Time stamp - 1548902679.5
DEBUG:pymodbus.client.sync:New Transaction state 'SENDING'
DEBUG:pymodbus.transaction:Changing transaction state from 'SENDING' to 'WAITING FOR REPLY'
DEBUG:pymodbus.transaction:Changing transaction state from 'WAITING FOR REPLY' to 'PROCESSING REPLY'
DEBUG:pymodbus.transaction:RECV: 0x1 0x3 0xc 0xf7 0xca 0xc0 0x1b 0x0 0x0 0x0 0x0 0x0 0x0 0x0 0x0 0x43 0xad
DEBUG:pymodbus.framer.rtu_framer:Getting Frame - 0x3 0xc 0xf7 0xca 0xc0 0x1b 0x0 0x0 0x0 0x0 0x0 0x0 0x0 0x0
DEBUG:pymodbus.factory:Factory Response[ReadHoldingRegistersResponse: 3]
DEBUG:pymodbus.framer.rtu_framer:Frame advanced, resetting header!!
DEBUG:pymodbus.transaction:Adding transaction 24
DEBUG:pymodbus.transaction:Changing transaction state from 'PROCESSING REPLY' to 'TRANSACTION_COMPLETE'
DEBUG:pymodbus.transaction:Current transaction state - TRANSACTION_COMPLETE
DEBUG:pymodbus.transaction:Running transaction 25
DEBUG:pymodbus.transaction:SEND: 0x1 0x3 0x3 0xf2 0x0 0x6 0x64 0x7f
DEBUG:pymodbus.framer.rtu_framer:Changing state to IDLE - Last Frame End - 1548902679.53, Current Time stamp - 1548902680.47
DEBUG:pymodbus.client.sync:New Transaction state 'SENDING'
DEBUG:pymodbus.transaction:Changing transaction state from 'SENDING' to 'WAITING FOR REPLY'
DEBUG:pymodbus.transaction:Changing transaction state from 'WAITING FOR REPLY' to 'PROCESSING REPLY'
DEBUG:pymodbus.transaction:RECV: 0x1 0x3 0xc 0x52 0x5 0x42 0x9b 0xd4 0x3a 0x40 0xf5 0x0 0x0 0x0 0x0 0xd3 0xea
DEBUG:pymodbus.framer.rtu_framer:Getting Frame - 0x3 0xc 0x52 0x5 0x42 0x9b 0xd4 0x3a 0x40 0xf5 0x0 0x0 0x0 0x0
DEBUG:pymodbus.factory:Factory Response[ReadHoldingRegistersResponse: 3]
DEBUG:pymodbus.framer.rtu_framer:Frame advanced, resetting header!!
DEBUG:pymodbus.transaction:Adding transaction 25
DEBUG:pymodbus.transaction:Changing transaction state from 'PROCESSING REPLY' to 'TRANSACTION_COMPLETE'
DEBUG:pymodbus.transaction:Current transaction state - TRANSACTION_COMPLETE
DEBUG:pymodbus.transaction:Running transaction 26
DEBUG:pymodbus.transaction:SEND: 0x1 0x3 0x4 0x7c 0x0 0x6 0x5 0x20
DEBUG:pymodbus.framer.rtu_framer:Changing state to IDLE - Last Frame End - 1548902680.5, Current Time stamp - 1548902680.5
DEBUG:pymodbus.client.sync:New Transaction state 'SENDING'
DEBUG:pymodbus.transaction:Changing transaction state from 'SENDING' to 'WAITING FOR REPLY'
DEBUG:pymodbus.transaction:Changing transaction state from 'WAITING FOR REPLY' to 'PROCESSING REPLY'
DEBUG:pymodbus.transaction:RECV: 0x1 0x3 0xc 0xf7 0xca 0xc0 0x1b 0x0 0x0 0x0 0x0 0x0 0x0 0x0 0x0 0x43 0xad
DEBUG:pymodbus.framer.rtu_framer:Getting Frame - 0x3 0xc 0xf7 0xca 0xc0 0x1b 0x0 0x0 0x0 0x0 0x0 0x0 0x0 0x0
DEBUG:pymodbus.factory:Factory Response[ReadHoldingRegistersResponse: 3]
DEBUG:pymodbus.framer.rtu_framer:Frame advanced, resetting header!!
DEBUG:pymodbus.transaction:Adding transaction 26
DEBUG:pymodbus.transaction:Changing transaction state from 'PROCESSING REPLY' to 'TRANSACTION_COMPLETE'
DEBUG:pymodbus.transaction:Current transaction state - TRANSACTION_COMPLETE
DEBUG:pymodbus.transaction:Running transaction 27
DEBUG:pymodbus.transaction:SEND: 0x1 0x3 0x3 0xf2 0x0 0x6 0x64 0x7f
DEBUG:pymodbus.framer.rtu_framer:Changing state to IDLE - Last Frame End - 1548902680.53, Current Time stamp - 1548902681.47
DEBUG:pymodbus.client.sync:New Transaction state 'SENDING'
DEBUG:pymodbus.transaction:Changing transaction state from 'SENDING' to 'WAITING FOR REPLY'
DEBUG:pymodbus.transaction:Changing transaction state from 'WAITING FOR REPLY' to 'PROCESSING REPLY'
DEBUG:pymodbus.transaction:RECV: 0x1 0x3 0xc 0x52 0x5 0x42 0x9b 0x48 0x36 0x41 0x28 0x0 0x0 0x0 0x0 0xfb 0x11
DEBUG:pymodbus.framer.rtu_framer:Getting Frame - 0x3 0xc 0x52 0x5 0x42 0x9b 0x48 0x36 0x41 0x28 0x0 0x0 0x0 0x0
DEBUG:pymodbus.factory:Factory Response[ReadHoldingRegistersResponse: 3]
DEBUG:pymodbus.framer.rtu_framer:Frame advanced, resetting header!!
DEBUG:pymodbus.transaction:Adding transaction 27
DEBUG:pymodbus.transaction:Changing transaction state from 'PROCESSING REPLY' to 'TRANSACTION_COMPLETE'
DEBUG:pymodbus.transaction:Current transaction state - TRANSACTION_COMPLETE
DEBUG:pymodbus.transaction:Running transaction 28
DEBUG:pymodbus.transaction:SEND: 0x1 0x3 0x4 0x7c 0x0 0x6 0x5 0x20
DEBUG:pymodbus.framer.rtu_framer:Changing state to IDLE - Last Frame End - 1548902681.5, Current Time stamp - 1548902681.5
DEBUG:pymodbus.client.sync:New Transaction state 'SENDING'
DEBUG:pymodbus.transaction:Changing transaction state from 'SENDING' to 'WAITING FOR REPLY'
DEBUG:pymodbus.transaction:Changing transaction state from 'WAITING FOR REPLY' to 'PROCESSING REPLY'
DEBUG:pymodbus.transaction:RECV: 0x1 0x3 0xc 0x0 0x0 0x0 0x0 0x0 0x0 0x0 0x0 0x0 0x0 0x0 0x0 0x93 0x70
DEBUG:pymodbus.framer.rtu_framer:Getting Frame - 0x3 0xc 0x0 0x0 0x0 0x0 0x0 0x0 0x0 0x0 0x0 0x0 0x0 0x0
DEBUG:pymodbus.factory:Factory Response[ReadHoldingRegistersResponse: 3]
DEBUG:pymodbus.framer.rtu_framer:Frame advanced, resetting header!!
DEBUG:pymodbus.transaction:Adding transaction 28
DEBUG:pymodbus.transaction:Changing transaction state from 'PROCESSING REPLY' to 'TRANSACTION_COMPLETE'
DEBUG:pymodbus.transaction:Current transaction state - TRANSACTION_COMPLETE
DEBUG:pymodbus.transaction:Running transaction 29
DEBUG:pymodbus.transaction:SEND: 0x1 0x3 0x3 0xf2 0x0 0x6 0x64 0x7f
DEBUG:pymodbus.framer.rtu_framer:Changing state to IDLE - Last Frame End - 1548902681.53, Current Time stamp - 1548902682.47
DEBUG:pymodbus.client.sync:New Transaction state 'SENDING'
DEBUG:pymodbus.transaction:Changing transaction state from 'SENDING' to 'WAITING FOR REPLY'
DEBUG:pymodbus.transaction:Changing transaction state from 'WAITING FOR REPLY' to 'PROCESSING REPLY'
DEBUG:pymodbus.transaction:RECV: 0x1 0x3 0xc 0xea 0xce 0x42 0x9a 0x26 0x90 0x41 0x2c 0x0 0x0 0x0 0x0 0x3c 0x29
DEBUG:pymodbus.framer.rtu_framer:Getting Frame - 0x3 0xc 0xea 0xce 0x42 0x9a 0x26 0x90 0x41 0x2c 0x0 0x0 0x0 0x0
DEBUG:pymodbus.factory:Factory Response[ReadHoldingRegistersResponse: 3]
DEBUG:pymodbus.framer.rtu_framer:Frame advanced, resetting header!!
DEBUG:pymodbus.transaction:Adding transaction 29
DEBUG:pymodbus.transaction:Changing transaction state from 'PROCESSING REPLY' to 'TRANSACTION_COMPLETE'
DEBUG:pymodbus.transaction:Current transaction state - TRANSACTION_COMPLETE
DEBUG:pymodbus.transaction:Running transaction 30
DEBUG:pymodbus.transaction:SEND: 0x1 0x3 0x4 0x7c 0x0 0x6 0x5 0x20
DEBUG:pymodbus.framer.rtu_framer:Changing state to IDLE - Last Frame End - 1548902682.5, Current Time stamp - 1548902682.51
DEBUG:pymodbus.client.sync:New Transaction state 'SENDING'
DEBUG:pymodbus.transaction:Changing transaction state from 'SENDING' to 'WAITING FOR REPLY'
DEBUG:pymodbus.transaction:Changing transaction state from 'WAITING FOR REPLY' to 'PROCESSING REPLY'
DEBUG:pymodbus.transaction:RECV: 0x1 0x3 0xc 0xa 0x8b 0xc0 0x1f 0x0 0x0 0x0 0x0 0x0 0x0 0x0 0x0 0x8e 0x82
DEBUG:pymodbus.framer.rtu_framer:Getting Frame - 0x3 0xc 0xa 0x8b 0xc0 0x1f 0x0 0x0 0x0 0x0 0x0 0x0 0x0 0x0
DEBUG:pymodbus.factory:Factory Response[ReadHoldingRegistersResponse: 3]
DEBUG:pymodbus.framer.rtu_framer:Frame advanced, resetting header!!
DEBUG:pymodbus.transaction:Adding transaction 30
DEBUG:pymodbus.transaction:Changing transaction state from 'PROCESSING REPLY' to 'TRANSACTION_COMPLETE'
DEBUG:pymodbus.transaction:Current transaction state - TRANSACTION_COMPLETE
DEBUG:pymodbus.transaction:Running transaction 31
DEBUG:pymodbus.transaction:SEND: 0x1 0x3 0x3 0xf2 0x0 0x6 0x64 0x7f
DEBUG:pymodbus.framer.rtu_framer:Changing state to IDLE - Last Frame End - 1548902682.53, Current Time stamp - 1548902683.48
DEBUG:pymodbus.client.sync:New Transaction state 'SENDING'
DEBUG:pymodbus.transaction:Changing transaction state from 'SENDING' to 'WAITING FOR REPLY'
DEBUG:pymodbus.transaction:Changing transaction state from 'WAITING FOR REPLY' to 'PROCESSING REPLY'
DEBUG:pymodbus.transaction:RECV: 0x1 0x3 0xc 0xa8 0x4 0x42 0x9a 0xe7 0x56 0x41 0x60 0x0 0x0 0x0 0x0 0x63 0x54
DEBUG:pymodbus.framer.rtu_framer:Getting Frame - 0x3 0xc 0xa8 0x4 0x42 0x9a 0xe7 0x56 0x41 0x60 0x0 0x0 0x0 0x0
DEBUG:pymodbus.factory:Factory Response[ReadHoldingRegistersResponse: 3]
DEBUG:pymodbus.framer.rtu_framer:Frame advanced, resetting header!!
DEBUG:pymodbus.transaction:Adding transaction 31
DEBUG:pymodbus.transaction:Changing transaction state from 'PROCESSING REPLY' to 'TRANSACTION_COMPLETE'
DEBUG:pymodbus.transaction:Current transaction state - TRANSACTION_COMPLETE
DEBUG:pymodbus.transaction:Running transaction 32
DEBUG:pymodbus.transaction:SEND: 0x1 0x3 0x4 0x7c 0x0 0x6 0x5 0x20
DEBUG:pymodbus.framer.rtu_framer:Changing state to IDLE - Last Frame End - 1548902683.5, Current Time stamp - 1548902683.51
DEBUG:pymodbus.client.sync:New Transaction state 'SENDING'
DEBUG:pymodbus.transaction:Changing transaction state from 'SENDING' to 'WAITING FOR REPLY'
DEBUG:pymodbus.transaction:Changing transaction state from 'WAITING FOR REPLY' to 'PROCESSING REPLY'
DEBUG:pymodbus.transaction:RECV: 0x1 0x3 0xc 0xa 0x8b 0xc0 0x1f 0x0 0x0 0x0 0x0 0x0 0x0 0x0 0x0 0x8e 0x82
DEBUG:pymodbus.framer.rtu_framer:Getting Frame - 0x3 0xc 0xa 0x8b 0xc0 0x1f 0x0 0x0 0x0 0x0 0x0 0x0 0x0 0x0
DEBUG:pymodbus.factory:Factory Response[ReadHoldingRegistersResponse: 3]
DEBUG:pymodbus.framer.rtu_framer:Frame advanced, resetting header!!
DEBUG:pymodbus.transaction:Adding transaction 32
DEBUG:pymodbus.transaction:Changing transaction state from 'PROCESSING REPLY' to 'TRANSACTION_COMPLETE'
DEBUG:pymodbus.transaction:Current transaction state - TRANSACTION_COMPLETE
DEBUG:pymodbus.transaction:Running transaction 33
DEBUG:pymodbus.transaction:SEND: 0x1 0x3 0x3 0xf2 0x0 0x6 0x64 0x7f
DEBUG:pymodbus.framer.rtu_framer:Changing state to IDLE - Last Frame End - 1548902683.53, Current Time stamp - 1548902684.48
DEBUG:pymodbus.client.sync:New Transaction state 'SENDING'
DEBUG:pymodbus.transaction:Changing transaction state from 'SENDING' to 'WAITING FOR REPLY'
DEBUG:pymodbus.transaction:Changing transaction state from 'WAITING FOR REPLY' to 'PROCESSING REPLY'
DEBUG:pymodbus.transaction:RECV: 0x1 0x3 0xc 0x95 0xcd 0x42 0x9a 0xa5 0x6d 0x41 0x35 0x0 0x0 0x0 0x0 0x1f 0x7e
DEBUG:pymodbus.framer.rtu_framer:Getting Frame - 0x3 0xc 0x95 0xcd 0x42 0x9a 0xa5 0x6d 0x41 0x35 0x0 0x0 0x0 0x0
DEBUG:pymodbus.factory:Factory Response[ReadHoldingRegistersResponse: 3]
DEBUG:pymodbus.framer.rtu_framer:Frame advanced, resetting header!!
DEBUG:pymodbus.transaction:Adding transaction 33
DEBUG:pymodbus.transaction:Changing transaction state from 'PROCESSING REPLY' to 'TRANSACTION_COMPLETE'
DEBUG:pymodbus.transaction:Current transaction state - TRANSACTION_COMPLETE
DEBUG:pymodbus.transaction:Running transaction 34
DEBUG:pymodbus.transaction:SEND: 0x1 0x3 0x4 0x7c 0x0 0x6 0x5 0x20
DEBUG:pymodbus.framer.rtu_framer:Changing state to IDLE - Last Frame End - 1548902684.51, Current Time stamp - 1548902684.51
DEBUG:pymodbus.client.sync:New Transaction state 'SENDING'
DEBUG:pymodbus.transaction:Changing transaction state from 'SENDING' to 'WAITING FOR REPLY'
DEBUG:pymodbus.transaction:Changing transaction state from 'WAITING FOR REPLY' to 'PROCESSING REPLY'
DEBUG:pymodbus.transaction:RECV: 0x1 0x3 0xc 0x6c 0xe3 0xc0 0x9f 0x0 0x0 0x0 0x0 0x0 0x0 0x0 0x0 0xb3 0xad
DEBUG:pymodbus.framer.rtu_framer:Getting Frame - 0x3 0xc 0x6c 0xe3 0xc0 0x9f 0x0 0x0 0x0 0x0 0x0 0x0 0x0 0x0
DEBUG:pymodbus.factory:Factory Response[ReadHoldingRegistersResponse: 3]
DEBUG:pymodbus.framer.rtu_framer:Frame advanced, resetting header!!
DEBUG:pymodbus.transaction:Adding transaction 34
DEBUG:pymodbus.transaction:Changing transaction state from 'PROCESSING REPLY' to 'TRANSACTION_COMPLETE'
DEBUG:pymodbus.transaction:Current transaction state - TRANSACTION_COMPLETE
DEBUG:pymodbus.transaction:Running transaction 35
DEBUG:pymodbus.transaction:SEND: 0x1 0x3 0x3 0xf2 0x0 0x6 0x64 0x7f
DEBUG:pymodbus.framer.rtu_framer:Changing state to IDLE - Last Frame End - 1548902684.54, Current Time stamp - 1548902685.48
DEBUG:pymodbus.client.sync:New Transaction state 'SENDING'
DEBUG:pymodbus.transaction:Changing transaction state from 'SENDING' to 'WAITING FOR REPLY'
DEBUG:pymodbus.transaction:Changing transaction state from 'WAITING FOR REPLY' to 'PROCESSING REPLY'
DEBUG:pymodbus.transaction:RECV: 0x1 0x3 0xc 0xe5 0xbb 0x42 0x99 0x62 0x20 0x41 0x3d 0x0 0x0 0x0 0x0 0xcf 0xcb
DEBUG:pymodbus.framer.rtu_framer:Getting Frame - 0x3 0xc 0xe5 0xbb 0x42 0x99 0x62 0x20 0x41 0x3d 0x0 0x0 0x0 0x0
DEBUG:pymodbus.factory:Factory Response[ReadHoldingRegistersResponse: 3]
DEBUG:pymodbus.framer.rtu_framer:Frame advanced, resetting header!!
DEBUG:pymodbus.transaction:Adding transaction 35
DEBUG:pymodbus.transaction:Changing transaction state from 'PROCESSING REPLY' to 'TRANSACTION_COMPLETE'
DEBUG:pymodbus.transaction:Current transaction state - TRANSACTION_COMPLETE
DEBUG:pymodbus.transaction:Running transaction 36
DEBUG:pymodbus.transaction:SEND: 0x1 0x3 0x4 0x7c 0x0 0x6 0x5 0x20
DEBUG:pymodbus.framer.rtu_framer:Changing state to IDLE - Last Frame End - 1548902685.5, Current Time stamp - 1548902685.51
DEBUG:pymodbus.client.sync:New Transaction state 'SENDING'
DEBUG:pymodbus.transaction:Changing transaction state from 'SENDING' to 'WAITING FOR REPLY'
DEBUG:pymodbus.transaction:Changing transaction state from 'WAITING FOR REPLY' to 'PROCESSING REPLY'
DEBUG:pymodbus.transaction:RECV: 0x1 0x3 0xc 0x6c 0xe3 0xc0 0x9f 0x0 0x0 0x0 0x0 0x0 0x0 0x0 0x0 0xb3 0xad
DEBUG:pymodbus.framer.rtu_framer:Getting Frame - 0x3 0xc 0x6c 0xe3 0xc0 0x9f 0x0 0x0 0x0 0x0 0x0 0x0 0x0 0x0
DEBUG:pymodbus.factory:Factory Response[ReadHoldingRegistersResponse: 3]
DEBUG:pymodbus.framer.rtu_framer:Frame advanced, resetting header!!
DEBUG:pymodbus.transaction:Adding transaction 36
DEBUG:pymodbus.transaction:Changing transaction state from 'PROCESSING REPLY' to 'TRANSACTION_COMPLETE'
DEBUG:pymodbus.transaction:Current transaction state - TRANSACTION_COMPLETE
DEBUG:pymodbus.transaction:Running transaction 37
DEBUG:pymodbus.transaction:SEND: 0x1 0x3 0x3 0xf2 0x0 0x6 0x64 0x7f
DEBUG:pymodbus.framer.rtu_framer:Changing state to IDLE - Last Frame End - 1548902685.53, Current Time stamp - 1548902686.48
DEBUG:pymodbus.client.sync:New Transaction state 'SENDING'
DEBUG:pymodbus.transaction:Changing transaction state from 'SENDING' to 'WAITING FOR REPLY'
DEBUG:pymodbus.transaction:Changing transaction state from 'WAITING FOR REPLY' to 'PROCESSING REPLY'
DEBUG:pymodbus.transaction:RECV: 0x1 0x3 0xc 0x22 0x72 0x42 0x9a 0x4 0x6 0x41 0x10 0x0 0x0 0x0 0x0 0x92 0xe8
DEBUG:pymodbus.framer.rtu_framer:Getting Frame - 0x3 0xc 0x22 0x72 0x42 0x9a 0x4 0x6 0x41 0x10 0x0 0x0 0x0 0x0
DEBUG:pymodbus.factory:Factory Response[ReadHoldingRegistersResponse: 3]
DEBUG:pymodbus.framer.rtu_framer:Frame advanced, resetting header!!
DEBUG:pymodbus.transaction:Adding transaction 37
DEBUG:pymodbus.transaction:Changing transaction state from 'PROCESSING REPLY' to 'TRANSACTION_COMPLETE'
DEBUG:pymodbus.transaction:Current transaction state - TRANSACTION_COMPLETE
DEBUG:pymodbus.transaction:Running transaction 38
DEBUG:pymodbus.transaction:SEND: 0x1 0x3 0x4 0x7c 0x0 0x6 0x5 0x20
DEBUG:pymodbus.framer.rtu_framer:Changing state to IDLE - Last Frame End - 1548902686.51, Current Time stamp - 1548902686.51
DEBUG:pymodbus.client.sync:New Transaction state 'SENDING'
DEBUG:pymodbus.transaction:Changing transaction state from 'SENDING' to 'WAITING FOR REPLY'
DEBUG:pymodbus.transaction:Changing transaction state from 'WAITING FOR REPLY' to 'PROCESSING REPLY'
DEBUG:pymodbus.transaction:RECV: 0x1 0x3 0xc 0x19 0x32 0xc0 0xf0 0x0 0x0 0x0 0x0 0x0 0x0 0x0 0x0 0xbb 0x13
DEBUG:pymodbus.framer.rtu_framer:Getting Frame - 0x3 0xc 0x19 0x32 0xc0 0xf0 0x0 0x0 0x0 0x0 0x0 0x0 0x0 0x0
DEBUG:pymodbus.factory:Factory Response[ReadHoldingRegistersResponse: 3]
DEBUG:pymodbus.framer.rtu_framer:Frame advanced, resetting header!!
DEBUG:pymodbus.transaction:Adding transaction 38
DEBUG:pymodbus.transaction:Changing transaction state from 'PROCESSING REPLY' to 'TRANSACTION_COMPLETE'
DEBUG:pymodbus.transaction:Current transaction state - TRANSACTION_COMPLETE
DEBUG:pymodbus.transaction:Running transaction 39
DEBUG:pymodbus.transaction:SEND: 0x1 0x3 0x3 0xf2 0x0 0x6 0x64 0x7f
DEBUG:pymodbus.framer.rtu_framer:Changing state to IDLE - Last Frame End - 1548902686.54, Current Time stamp - 1548902687.48
DEBUG:pymodbus.client.sync:New Transaction state 'SENDING'
DEBUG:pymodbus.transaction:Changing transaction state from 'SENDING' to 'WAITING FOR REPLY'
DEBUG:pymodbus.transaction:Changing transaction state from 'WAITING FOR REPLY' to 'PROCESSING REPLY'
DEBUG:pymodbus.transaction:RECV: 0x1 0x3 0xc 0x28 0x85 0x42 0x9a 0x7 0xa5 0x41 0x2d 0x0 0x0 0x0 0x0 0x2d 0x5d
DEBUG:pymodbus.framer.rtu_framer:Getting Frame - 0x3 0xc 0x28 0x85 0x42 0x9a 0x7 0xa5 0x41 0x2d 0x0 0x0 0x0 0x0
DEBUG:pymodbus.factory:Factory Response[ReadHoldingRegistersResponse: 3]
DEBUG:pymodbus.framer.rtu_framer:Frame advanced, resetting header!!
DEBUG:pymodbus.transaction:Adding transaction 39
DEBUG:pymodbus.transaction:Changing transaction state from 'PROCESSING REPLY' to 'TRANSACTION_COMPLETE'
DEBUG:pymodbus.transaction:Current transaction state - TRANSACTION_COMPLETE
DEBUG:pymodbus.transaction:Running transaction 40
DEBUG:pymodbus.transaction:SEND: 0x1 0x3 0x4 0x7c 0x0 0x6 0x5 0x20
DEBUG:pymodbus.framer.rtu_framer:Changing state to IDLE - Last Frame End - 1548902687.51, Current Time stamp - 1548902687.51
DEBUG:pymodbus.client.sync:New Transaction state 'SENDING'
DEBUG:pymodbus.transaction:Changing transaction state from 'SENDING' to 'WAITING FOR REPLY'
DEBUG:pymodbus.transaction:Changing transaction state from 'WAITING FOR REPLY' to 'PROCESSING REPLY'
DEBUG:pymodbus.transaction:RECV: 0x1 0x3 0xc 0x93 0xec 0xc0 0xa0 0x0 0x0 0x0 0x0 0x0 0x0 0x0 0x0 0xc1 0x5d
DEBUG:pymodbus.framer.rtu_framer:Getting Frame - 0x3 0xc 0x93 0xec 0xc0 0xa0 0x0 0x0 0x0 0x0 0x0 0x0 0x0 0x0
DEBUG:pymodbus.factory:Factory Response[ReadHoldingRegistersResponse: 3]
DEBUG:pymodbus.framer.rtu_framer:Frame advanced, resetting header!!
DEBUG:pymodbus.transaction:Adding transaction 40
DEBUG:pymodbus.transaction:Changing transaction state from 'PROCESSING REPLY' to 'TRANSACTION_COMPLETE'
DEBUG:pymodbus.transaction:Current transaction state - TRANSACTION_COMPLETE
DEBUG:pymodbus.transaction:Running transaction 41
DEBUG:pymodbus.transaction:SEND: 0x1 0x3 0x3 0xf2 0x0 0x6 0x64 0x7f
DEBUG:pymodbus.framer.rtu_framer:Changing state to IDLE - Last Frame End - 1548902687.54, Current Time stamp - 1548902688.48
DEBUG:pymodbus.client.sync:New Transaction state 'SENDING'
DEBUG:pymodbus.transaction:Changing transaction state from 'SENDING' to 'WAITING FOR REPLY'
DEBUG:pymodbus.transaction:Changing transaction state from 'WAITING FOR REPLY' to 'PROCESSING REPLY'
DEBUG:pymodbus.transaction:RECV: 0x1 0x3 0xc 0x65 0x3b 0x42 0x9a 0x8d 0xc0 0x40 0xf0 0x0 0x0 0x0 0x0 0xf3 0x40
DEBUG:pymodbus.framer.rtu_framer:Getting Frame - 0x3 0xc 0x65 0x3b 0x42 0x9a 0x8d 0xc0 0x40 0xf0 0x0 0x0 0x0 0x0
DEBUG:pymodbus.factory:Factory Response[ReadHoldingRegistersResponse: 3]
DEBUG:pymodbus.framer.rtu_framer:Frame advanced, resetting header!!
DEBUG:pymodbus.transaction:Adding transaction 41
DEBUG:pymodbus.transaction:Changing transaction state from 'PROCESSING REPLY' to 'TRANSACTION_COMPLETE'
DEBUG:pymodbus.transaction:Current transaction state - TRANSACTION_COMPLETE
DEBUG:pymodbus.transaction:Running transaction 42
DEBUG:pymodbus.transaction:SEND: 0x1 0x3 0x4 0x7c 0x0 0x6 0x5 0x20
DEBUG:pymodbus.framer.rtu_framer:Changing state to IDLE - Last Frame End - 1548902688.51, Current Time stamp - 1548902688.51
DEBUG:pymodbus.client.sync:New Transaction state 'SENDING'
DEBUG:pymodbus.transaction:Changing transaction state from 'SENDING' to 'WAITING FOR REPLY'
DEBUG:pymodbus.transaction:Changing transaction state from 'WAITING FOR REPLY' to 'PROCESSING REPLY'
DEBUG:pymodbus.transaction:RECV: 0x1 0x3 0xc 0x2d 0x7a 0xc0 0xee 0x0 0x0 0x0 0x0 0x0 0x0 0x0 0x0 0xf4 0x9d
DEBUG:pymodbus.framer.rtu_framer:Getting Frame - 0x3 0xc 0x2d 0x7a 0xc0 0xee 0x0 0x0 0x0 0x0 0x0 0x0 0x0 0x0
DEBUG:pymodbus.factory:Factory Response[ReadHoldingRegistersResponse: 3]
DEBUG:pymodbus.framer.rtu_framer:Frame advanced, resetting header!!
DEBUG:pymodbus.transaction:Adding transaction 42
DEBUG:pymodbus.transaction:Changing transaction state from 'PROCESSING REPLY' to 'TRANSACTION_COMPLETE'
DEBUG:pymodbus.transaction:Current transaction state - TRANSACTION_COMPLETE
DEBUG:pymodbus.transaction:Running transaction 43
DEBUG:pymodbus.transaction:SEND: 0x1 0x3 0x3 0xf2 0x0 0x6 0x64 0x7f
DEBUG:pymodbus.framer.rtu_framer:Changing state to IDLE - Last Frame End - 1548902688.54, Current Time stamp - 1548902689.48
DEBUG:pymodbus.client.sync:New Transaction state 'SENDING'
DEBUG:pymodbus.transaction:Changing transaction state from 'SENDING' to 'WAITING FOR REPLY'
DEBUG:pymodbus.transaction:Changing transaction state from 'WAITING FOR REPLY' to 'PROCESSING REPLY'
DEBUG:pymodbus.transaction:RECV: 0x1 0x3 0xc 0xae 0x16 0x42 0x9a 0x4a 0xf2 0x41 0x25 0x0 0x0 0x0 0x0 0xd7 0xc0
DEBUG:pymodbus.framer.rtu_framer:Getting Frame - 0x3 0xc 0xae 0x16 0x42 0x9a 0x4a 0xf2 0x41 0x25 0x0 0x0 0x0 0x0
DEBUG:pymodbus.factory:Factory Response[ReadHoldingRegistersResponse: 3]
DEBUG:pymodbus.framer.rtu_framer:Frame advanced, resetting header!!
DEBUG:pymodbus.transaction:Adding transaction 43
DEBUG:pymodbus.transaction:Changing transaction state from 'PROCESSING REPLY' to 'TRANSACTION_COMPLETE'
DEBUG:pymodbus.transaction:Current transaction state - TRANSACTION_COMPLETE
DEBUG:pymodbus.transaction:Running transaction 44
DEBUG:pymodbus.transaction:SEND: 0x1 0x3 0x4 0x7c 0x0 0x6 0x5 0x20
DEBUG:pymodbus.framer.rtu_framer:Changing state to IDLE - Last Frame End - 1548902689.51, Current Time stamp - 1548902689.52
DEBUG:pymodbus.client.sync:New Transaction state 'SENDING'
DEBUG:pymodbus.transaction:Changing transaction state from 'SENDING' to 'WAITING FOR REPLY'
DEBUG:pymodbus.transaction:Changing transaction state from 'WAITING FOR REPLY' to 'PROCESSING REPLY'
DEBUG:pymodbus.transaction:RECV: 0x1 0x3 0xc 0x1a 0xb8 0xc0 0xeb 0x0 0x0 0x0 0x0 0x0 0x0 0x0 0x0 0x89 0xfd
DEBUG:pymodbus.framer.rtu_framer:Getting Frame - 0x3 0xc 0x1a 0xb8 0xc0 0xeb 0x0 0x0 0x0 0x0 0x0 0x0 0x0 0x0
DEBUG:pymodbus.factory:Factory Response[ReadHoldingRegistersResponse: 3]
DEBUG:pymodbus.framer.rtu_framer:Frame advanced, resetting header!!
DEBUG:pymodbus.transaction:Adding transaction 44
DEBUG:pymodbus.transaction:Changing transaction state from 'PROCESSING REPLY' to 'TRANSACTION_COMPLETE'
DEBUG:pymodbus.transaction:Current transaction state - TRANSACTION_COMPLETE
DEBUG:pymodbus.transaction:Running transaction 45
DEBUG:pymodbus.transaction:SEND: 0x1 0x3 0x3 0xf2 0x0 0x6 0x64 0x7f
DEBUG:pymodbus.framer.rtu_framer:Changing state to IDLE - Last Frame End - 1548902689.54, Current Time stamp - 1548902690.48
DEBUG:pymodbus.client.sync:New Transaction state 'SENDING'
DEBUG:pymodbus.transaction:Changing transaction state from 'SENDING' to 'WAITING FOR REPLY'
DEBUG:pymodbus.transaction:Changing transaction state from 'WAITING FOR REPLY' to 'PROCESSING REPLY'
DEBUG:pymodbus.transaction:RECV: 0x1 0x3 0xc 0xea 0xcd 0x42 0x9a 0x85 0x1d 0x40 0xe9 0x0 0x0 0x0 0x0 0xe9 0xc8
DEBUG:pymodbus.framer.rtu_framer:Getting Frame - 0x3 0xc 0xea 0xcd 0x42 0x9a 0x85 0x1d 0x40 0xe9 0x0 0x0 0x0 0x0
DEBUG:pymodbus.factory:Factory Response[ReadHoldingRegistersResponse: 3]
DEBUG:pymodbus.framer.rtu_framer:Frame advanced, resetting header!!
DEBUG:pymodbus.transaction:Adding transaction 45
DEBUG:pymodbus.transaction:Changing transaction state from 'PROCESSING REPLY' to 'TRANSACTION_COMPLETE'
DEBUG:pymodbus.transaction:Current transaction state - TRANSACTION_COMPLETE
DEBUG:pymodbus.transaction:Running transaction 46
DEBUG:pymodbus.transaction:SEND: 0x1 0x3 0x4 0x7c 0x0 0x6 0x5 0x20
DEBUG:pymodbus.framer.rtu_framer:Changing state to IDLE - Last Frame End - 1548902690.51, Current Time stamp - 1548902690.52
DEBUG:pymodbus.client.sync:New Transaction state 'SENDING'
DEBUG:pymodbus.transaction:Changing transaction state from 'SENDING' to 'WAITING FOR REPLY'
DEBUG:pymodbus.transaction:Changing transaction state from 'WAITING FOR REPLY' to 'PROCESSING REPLY'
DEBUG:pymodbus.transaction:RECV: 0x1 0x3 0xc 0x1a 0xb8 0xc0 0xeb 0x0 0x0 0x0 0x0 0x0 0x0 0x0 0x0 0x89 0xfd
DEBUG:pymodbus.framer.rtu_framer:Getting Frame - 0x3 0xc 0x1a 0xb8 0xc0 0xeb 0x0 0x0 0x0 0x0 0x0 0x0 0x0 0x0
DEBUG:pymodbus.factory:Factory Response[ReadHoldingRegistersResponse: 3]
DEBUG:pymodbus.framer.rtu_framer:Frame advanced, resetting header!!
DEBUG:pymodbus.transaction:Adding transaction 46
DEBUG:pymodbus.transaction:Changing transaction state from 'PROCESSING REPLY' to 'TRANSACTION_COMPLETE'
DEBUG:pymodbus.transaction:Current transaction state - TRANSACTION_COMPLETE
DEBUG:pymodbus.transaction:Running transaction 47
DEBUG:pymodbus.transaction:SEND: 0x1 0x3 0x3 0xf2 0x0 0x6 0x64 0x7f
DEBUG:pymodbus.framer.rtu_framer:Changing state to IDLE - Last Frame End - 1548902690.54, Current Time stamp - 1548902691.49
DEBUG:pymodbus.client.sync:New Transaction state 'SENDING'
DEBUG:pymodbus.transaction:Changing transaction state from 'SENDING' to 'WAITING FOR REPLY'
DEBUG:pymodbus.transaction:Changing transaction state from 'WAITING FOR REPLY' to 'PROCESSING REPLY'
DEBUG:pymodbus.transaction:RECV: 0x1 0x3 0xc 0x77 0x72 0x42 0x9a 0x53 0x22 0x41 0x1c 0x0 0x0 0x0 0x0 0x6e 0xfd
DEBUG:pymodbus.framer.rtu_framer:Getting Frame - 0x3 0xc 0x77 0x72 0x42 0x9a 0x53 0x22 0x41 0x1c 0x0 0x0 0x0 0x0
DEBUG:pymodbus.factory:Factory Response[ReadHoldingRegistersResponse: 3]
DEBUG:pymodbus.framer.rtu_framer:Frame advanced, resetting header!!
DEBUG:pymodbus.transaction:Adding transaction 47
DEBUG:pymodbus.transaction:Changing transaction state from 'PROCESSING REPLY' to 'TRANSACTION_COMPLETE'
DEBUG:pymodbus.transaction:Current transaction state - TRANSACTION_COMPLETE
DEBUG:pymodbus.transaction:Running transaction 48
DEBUG:pymodbus.transaction:SEND: 0x1 0x3 0x4 0x7c 0x0 0x6 0x5 0x20
DEBUG:pymodbus.framer.rtu_framer:Changing state to IDLE - Last Frame End - 1548902691.51, Current Time stamp - 1548902691.52
DEBUG:pymodbus.client.sync:New Transaction state 'SENDING'
DEBUG:pymodbus.transaction:Changing transaction state from 'SENDING' to 'WAITING FOR REPLY'
DEBUG:pymodbus.transaction:Changing transaction state from 'WAITING FOR REPLY' to 'PROCESSING REPLY'
DEBUG:pymodbus.transaction:RECV: 0x1 0x3 0xc 0x6e 0x6a 0xc0 0x9a 0x0 0x0 0x0 0x0 0x0 0x0 0x0 0x0 0xf2 0x64
DEBUG:pymodbus.framer.rtu_framer:Getting Frame - 0x3 0xc 0x6e 0x6a 0xc0 0x9a 0x0 0x0 0x0 0x0 0x0 0x0 0x0 0x0
DEBUG:pymodbus.factory:Factory Response[ReadHoldingRegistersResponse: 3]
DEBUG:pymodbus.framer.rtu_framer:Frame advanced, resetting header!!
DEBUG:pymodbus.transaction:Adding transaction 48
DEBUG:pymodbus.transaction:Changing transaction state from 'PROCESSING REPLY' to 'TRANSACTION_COMPLETE'
DEBUG:pymodbus.transaction:Current transaction state - TRANSACTION_COMPLETE
DEBUG:pymodbus.transaction:Running transaction 49
DEBUG:pymodbus.transaction:SEND: 0x1 0x3 0x3 0xf2 0x0 0x6 0x64 0x7f
DEBUG:pymodbus.framer.rtu_framer:Changing state to IDLE - Last Frame End - 1548902691.54, Current Time stamp - 1548902692.49
DEBUG:pymodbus.client.sync:New Transaction state 'SENDING'
DEBUG:pymodbus.transaction:Changing transaction state from 'SENDING' to 'WAITING FOR REPLY'
DEBUG:pymodbus.transaction:Changing transaction state from 'WAITING FOR REPLY' to 'PROCESSING REPLY'
DEBUG:pymodbus.transaction:RECV: 0x1 0x3 0xc 0xd8 0x96 0x42 0x9a 0x29 0x4b 0x40 0xa9 0x0 0x0 0x0 0x0 0x49 0x8d
DEBUG:pymodbus.framer.rtu_framer:Getting Frame - 0x3 0xc 0xd8 0x96 0x42 0x9a 0x29 0x4b 0x40 0xa9 0x0 0x0 0x0 0x0
DEBUG:pymodbus.factory:Factory Response[ReadHoldingRegistersResponse: 3]
DEBUG:pymodbus.framer.rtu_framer:Frame advanced, resetting header!!
DEBUG:pymodbus.transaction:Adding transaction 49
DEBUG:pymodbus.transaction:Changing transaction state from 'PROCESSING REPLY' to 'TRANSACTION_COMPLETE'
DEBUG:pymodbus.transaction:Current transaction state - TRANSACTION_COMPLETE
DEBUG:pymodbus.transaction:Running transaction 50
DEBUG:pymodbus.transaction:SEND: 0x1 0x3 0x4 0x7c 0x0 0x6 0x5 0x20
DEBUG:pymodbus.framer.rtu_framer:Changing state to IDLE - Last Frame End - 1548902692.51, Current Time stamp - 1548902692.52
DEBUG:pymodbus.client.sync:New Transaction state 'SENDING'
DEBUG:pymodbus.transaction:Changing transaction state from 'SENDING' to 'WAITING FOR REPLY'
DEBUG:pymodbus.transaction:Changing transaction state from 'WAITING FOR REPLY' to 'PROCESSING REPLY'
DEBUG:pymodbus.transaction:RECV: 0x1 0x3 0xc 0xa9 0xba 0xc0 0x19 0x0 0x0 0x0 0x0 0x0 0x0 0x0 0x0 0xd9 0x1b
DEBUG:pymodbus.framer.rtu_framer:Getting Frame - 0x3 0xc 0xa9 0xba 0xc0 0x19 0x0 0x0 0x0 0x0 0x0 0x0 0x0 0x0
DEBUG:pymodbus.factory:Factory Response[ReadHoldingRegistersResponse: 3]
DEBUG:pymodbus.framer.rtu_framer:Frame advanced, resetting header!!
DEBUG:pymodbus.transaction:Adding transaction 50
DEBUG:pymodbus.transaction:Changing transaction state from 'PROCESSING REPLY' to 'TRANSACTION_COMPLETE'
DEBUG:pymodbus.transaction:Current transaction state - TRANSACTION_COMPLETE
DEBUG:pymodbus.transaction:Running transaction 51
DEBUG:pymodbus.transaction:SEND: 0x1 0x3 0x3 0xf2 0x0 0x6 0x64 0x7f
DEBUG:pymodbus.framer.rtu_framer:Changing state to IDLE - Last Frame End - 1548902692.54, Current Time stamp - 1548902693.49
DEBUG:pymodbus.client.sync:New Transaction state 'SENDING'
DEBUG:pymodbus.transaction:Changing transaction state from 'SENDING' to 'WAITING FOR REPLY'
DEBUG:pymodbus.transaction:Changing transaction state from 'WAITING FOR REPLY' to 'PROCESSING REPLY'
DEBUG:pymodbus.transaction:RECV: 0x1 0x3 0xc 0xdf 0xa8 0x42 0x99 0x55 0x6b 0x41 0x9 0x0 0x0 0x0 0x0 0xc4 0x25
DEBUG:pymodbus.framer.rtu_framer:Getting Frame - 0x3 0xc 0xdf 0xa8 0x42 0x99 0x55 0x6b 0x41 0x9 0x0 0x0 0x0 0x0
DEBUG:pymodbus.factory:Factory Response[ReadHoldingRegistersResponse: 3]
DEBUG:pymodbus.framer.rtu_framer:Frame advanced, resetting header!!
DEBUG:pymodbus.transaction:Adding transaction 51
DEBUG:pymodbus.transaction:Changing transaction state from 'PROCESSING REPLY' to 'TRANSACTION_COMPLETE'
DEBUG:pymodbus.transaction:Current transaction state - TRANSACTION_COMPLETE
DEBUG:pymodbus.transaction:Running transaction 52
DEBUG:pymodbus.transaction:SEND: 0x1 0x3 0x4 0x7c 0x0 0x6 0x5 0x20
DEBUG:pymodbus.framer.rtu_framer:Changing state to IDLE - Last Frame End - 1548902693.51, Current Time stamp - 1548902693.52
DEBUG:pymodbus.client.sync:New Transaction state 'SENDING'
DEBUG:pymodbus.transaction:Changing transaction state from 'SENDING' to 'WAITING FOR REPLY'
DEBUG:pymodbus.transaction:Changing transaction state from 'WAITING FOR REPLY' to 'PROCESSING REPLY'
DEBUG:pymodbus.transaction:RECV: 0x1 0x3 0xc 0x95 0x72 0xc0 0x9b 0x0 0x0 0x0 0x0 0x0 0x0 0x0 0x0 0x27 0x8e
DEBUG:pymodbus.framer.rtu_framer:Getting Frame - 0x3 0xc 0x95 0x72 0xc0 0x9b 0x0 0x0 0x0 0x0 0x0 0x0 0x0 0x0
DEBUG:pymodbus.factory:Factory Response[ReadHoldingRegistersResponse: 3]
DEBUG:pymodbus.framer.rtu_framer:Frame advanced, resetting header!!
DEBUG:pymodbus.transaction:Adding transaction 52
DEBUG:pymodbus.transaction:Changing transaction state from 'PROCESSING REPLY' to 'TRANSACTION_COMPLETE'
DEBUG:pymodbus.transaction:Current transaction state - TRANSACTION_COMPLETE
DEBUG:pymodbus.transaction:Running transaction 53
DEBUG:pymodbus.transaction:SEND: 0x1 0x3 0x3 0xf2 0x0 0x6 0x64 0x7f
DEBUG:pymodbus.framer.rtu_framer:Changing state to IDLE - Last Frame End - 1548902693.54, Current Time stamp - 1548902694.49
DEBUG:pymodbus.client.sync:New Transaction state 'SENDING'
DEBUG:pymodbus.transaction:Changing transaction state from 'SENDING' to 'WAITING FOR REPLY'
DEBUG:pymodbus.transaction:Changing transaction state from 'WAITING FOR REPLY' to 'PROCESSING REPLY'
DEBUG:pymodbus.transaction:RECV: 0x1 0x3 0xc 0xd9 0x96 0x42 0x99 0xa2 0xb2 0x40 0xb8 0x0 0x0 0x0 0x0 0x7c 0x61
DEBUG:pymodbus.framer.rtu_framer:Getting Frame - 0x3 0xc 0xd9 0x96 0x42 0x99 0xa2 0xb2 0x40 0xb8 0x0 0x0 0x0 0x0
DEBUG:pymodbus.factory:Factory Response[ReadHoldingRegistersResponse: 3]
DEBUG:pymodbus.framer.rtu_framer:Frame advanced, resetting header!!
DEBUG:pymodbus.transaction:Adding transaction 53
DEBUG:pymodbus.transaction:Changing transaction state from 'PROCESSING REPLY' to 'TRANSACTION_COMPLETE'
DEBUG:pymodbus.transaction:Current transaction state - TRANSACTION_COMPLETE
DEBUG:pymodbus.transaction:Running transaction 54
DEBUG:pymodbus.transaction:SEND: 0x1 0x3 0x4 0x7c 0x0 0x6 0x5 0x20
DEBUG:pymodbus.framer.rtu_framer:Changing state to IDLE - Last Frame End - 1548902694.52, Current Time stamp - 1548902694.52
DEBUG:pymodbus.client.sync:New Transaction state 'SENDING'
DEBUG:pymodbus.transaction:Changing transaction state from 'SENDING' to 'WAITING FOR REPLY'
DEBUG:pymodbus.transaction:Changing transaction state from 'WAITING FOR REPLY' to 'PROCESSING REPLY'
DEBUG:pymodbus.transaction:RECV: 0x1 0x3 0xc 0x81 0x2a 0xc0 0x1d 0x0 0x0 0x0 0x0 0x0 0x0 0x0 0x0 0x76 0xb9
DEBUG:pymodbus.framer.rtu_framer:Getting Frame - 0x3 0xc 0x81 0x2a 0xc0 0x1d 0x0 0x0 0x0 0x0 0x0 0x0 0x0 0x0
DEBUG:pymodbus.factory:Factory Response[ReadHoldingRegistersResponse: 3]
DEBUG:pymodbus.framer.rtu_framer:Frame advanced, resetting header!!
DEBUG:pymodbus.transaction:Adding transaction 54
DEBUG:pymodbus.transaction:Changing transaction state from 'PROCESSING REPLY' to 'TRANSACTION_COMPLETE'
DEBUG:pymodbus.transaction:Current transaction state - TRANSACTION_COMPLETE
DEBUG:pymodbus.transaction:Running transaction 55
DEBUG:pymodbus.transaction:SEND: 0x1 0x3 0x3 0xf2 0x0 0x6 0x64 0x7f
DEBUG:pymodbus.framer.rtu_framer:Changing state to IDLE - Last Frame End - 1548902694.55, Current Time stamp - 1548902695.49
DEBUG:pymodbus.client.sync:New Transaction state 'SENDING'
DEBUG:pymodbus.transaction:Changing transaction state from 'SENDING' to 'WAITING FOR REPLY'
DEBUG:pymodbus.transaction:Changing transaction state from 'WAITING FOR REPLY' to 'PROCESSING REPLY'
DEBUG:pymodbus.transaction:RECV: 0x1 0x3 0xc 0x7e 0x83 0x42 0x99 0x77 0x84 0x41 0x15 0x0 0x0 0x0 0x0 0x78 0xe
DEBUG:pymodbus.framer.rtu_framer:Getting Frame - 0x3 0xc 0x7e 0x83 0x42 0x99 0x77 0x84 0x41 0x15 0x0 0x0 0x0 0x0
DEBUG:pymodbus.factory:Factory Response[ReadHoldingRegistersResponse: 3]
DEBUG:pymodbus.framer.rtu_framer:Frame advanced, resetting header!!
DEBUG:pymodbus.transaction:Adding transaction 55
DEBUG:pymodbus.transaction:Changing transaction state from 'PROCESSING REPLY' to 'TRANSACTION_COMPLETE'
DEBUG:pymodbus.transaction:Current transaction state - TRANSACTION_COMPLETE
DEBUG:pymodbus.transaction:Running transaction 56
DEBUG:pymodbus.transaction:SEND: 0x1 0x3 0x4 0x7c 0x0 0x6 0x5 0x20
DEBUG:pymodbus.framer.rtu_framer:Changing state to IDLE - Last Frame End - 1548902695.52, Current Time stamp - 1548902695.52
DEBUG:pymodbus.client.sync:New Transaction state 'SENDING'
DEBUG:pymodbus.transaction:Changing transaction state from 'SENDING' to 'WAITING FOR REPLY'
DEBUG:pymodbus.transaction:Changing transaction state from 'WAITING FOR REPLY' to 'PROCESSING REPLY'
DEBUG:pymodbus.transaction:RECV: 0x1 0x3 0xc 0x81 0x2a 0xc0 0x1d 0x0 0x0 0x0 0x0 0x0 0x0 0x0 0x0 0x76 0xb9
DEBUG:pymodbus.framer.rtu_framer:Getting Frame - 0x3 0xc 0x81 0x2a 0xc0 0x1d 0x0 0x0 0x0 0x0 0x0 0x0 0x0 0x0
DEBUG:pymodbus.factory:Factory Response[ReadHoldingRegistersResponse: 3]
DEBUG:pymodbus.framer.rtu_framer:Frame advanced, resetting header!!
DEBUG:pymodbus.transaction:Adding transaction 56
DEBUG:pymodbus.transaction:Changing transaction state from 'PROCESSING REPLY' to 'TRANSACTION_COMPLETE'
DEBUG:pymodbus.transaction:Current transaction state - TRANSACTION_COMPLETE
DEBUG:pymodbus.transaction:Running transaction 57
DEBUG:pymodbus.transaction:SEND: 0x1 0x3 0x3 0xf2 0x0 0x6 0x64 0x7f
DEBUG:pymodbus.framer.rtu_framer:Changing state to IDLE - Last Frame End - 1548902695.55, Current Time stamp - 1548902696.49
DEBUG:pymodbus.client.sync:New Transaction state 'SENDING'
DEBUG:pymodbus.transaction:Changing transaction state from 'SENDING' to 'WAITING FOR REPLY'
DEBUG:pymodbus.transaction:Changing transaction state from 'WAITING FOR REPLY' to 'PROCESSING REPLY'
DEBUG:pymodbus.transaction:RECV: 0x1 0x3 0xc 0xae 0x17 0x42 0x9a 0xcd 0xe0 0x40 0xdb 0x0 0x0 0x0 0x0 0x80 0xbe
DEBUG:pymodbus.framer.rtu_framer:Getting Frame - 0x3 0xc 0xae 0x17 0x42 0x9a 0xcd 0xe0 0x40 0xdb 0x0 0x0 0x0 0x0
DEBUG:pymodbus.factory:Factory Response[ReadHoldingRegistersResponse: 3]
DEBUG:pymodbus.framer.rtu_framer:Frame advanced, resetting header!!
DEBUG:pymodbus.transaction:Adding transaction 57
DEBUG:pymodbus.transaction:Changing transaction state from 'PROCESSING REPLY' to 'TRANSACTION_COMPLETE'
DEBUG:pymodbus.transaction:Current transaction state - TRANSACTION_COMPLETE
DEBUG:pymodbus.transaction:Running transaction 58
DEBUG:pymodbus.transaction:SEND: 0x1 0x3 0x4 0x7c 0x0 0x6 0x5 0x20
DEBUG:pymodbus.framer.rtu_framer:Changing state to IDLE - Last Frame End - 1548902696.52, Current Time stamp - 1548902696.52
DEBUG:pymodbus.client.sync:New Transaction state 'SENDING'
DEBUG:pymodbus.transaction:Changing transaction state from 'SENDING' to 'WAITING FOR REPLY'
DEBUG:pymodbus.transaction:Changing transaction state from 'WAITING FOR REPLY' to 'PROCESSING REPLY'
DEBUG:pymodbus.transaction:RECV: 0x1 0x3 0xc 0x81 0x2a 0xc0 0x1d 0x0 0x0 0x0 0x0 0x0 0x0 0x0 0x0 0x76 0xb9
DEBUG:pymodbus.framer.rtu_framer:Getting Frame - 0x3 0xc 0x81 0x2a 0xc0 0x1d 0x0 0x0 0x0 0x0 0x0 0x0 0x0 0x0
DEBUG:pymodbus.factory:Factory Response[ReadHoldingRegistersResponse: 3]
DEBUG:pymodbus.framer.rtu_framer:Frame advanced, resetting header!!
DEBUG:pymodbus.transaction:Adding transaction 58
DEBUG:pymodbus.transaction:Changing transaction state from 'PROCESSING REPLY' to 'TRANSACTION_COMPLETE'
DEBUG:pymodbus.transaction:Current transaction state - TRANSACTION_COMPLETE
DEBUG:pymodbus.transaction:Running transaction 59
DEBUG:pymodbus.transaction:SEND: 0x1 0x3 0x3 0xf2 0x0 0x6 0x64 0x7f
DEBUG:pymodbus.framer.rtu_framer:Changing state to IDLE - Last Frame End - 1548902696.55, Current Time stamp - 1548902751.75
DEBUG:pymodbus.client.sync:New Transaction state 'SENDING'
DEBUG:pymodbus.transaction:Changing transaction state from 'SENDING' to 'WAITING FOR REPLY'
DEBUG:pymodbus.transaction:Changing transaction state from 'WAITING FOR REPLY' to 'PROCESSING REPLY'
DEBUG:pymodbus.transaction:RECV: 0x1 0x3 0xc 0xe5 0xbb 0x42 0x99 0xee 0x2e 0x41 0x27 0x0 0x0 0x0 0x0 0x71 0xfc
DEBUG:pymodbus.framer.rtu_framer:Getting Frame - 0x3 0xc 0xe5 0xbb 0x42 0x99 0xee 0x2e 0x41 0x27 0x0 0x0 0x0 0x0
DEBUG:pymodbus.factory:Factory Response[ReadHoldingRegistersResponse: 3]
DEBUG:pymodbus.framer.rtu_framer:Frame advanced, resetting header!!
DEBUG:pymodbus.transaction:Adding transaction 59
DEBUG:pymodbus.transaction:Changing transaction state from 'PROCESSING REPLY' to 'TRANSACTION_COMPLETE'
DEBUG:pymodbus.transaction:Current transaction state - TRANSACTION_COMPLETE
DEBUG:pymodbus.transaction:Running transaction 60
DEBUG:pymodbus.transaction:SEND: 0x1 0x3 0x4 0x7c 0x0 0x6 0x5 0x20
DEBUG:pymodbus.framer.rtu_framer:Changing state to IDLE - Last Frame End - 1548902751.77, Current Time stamp - 1548902751.78
DEBUG:pymodbus.client.sync:New Transaction state 'SENDING'
DEBUG:pymodbus.transaction:Changing transaction state from 'SENDING' to 'WAITING FOR REPLY'
DEBUG:pymodbus.transaction:Changing transaction state from 'WAITING FOR REPLY' to 'PROCESSING REPLY'
DEBUG:pymodbus.transaction:RECV: 0x1 0x3 0xc 0x81 0x2a 0xc0 0x1d 0x0 0x0 0x0 0x0 0x0 0x0 0x0 0x0 0x76 0xb9
DEBUG:pymodbus.framer.rtu_framer:Getting Frame - 0x3 0xc 0x81 0x2a 0xc0 0x1d 0x0 0x0 0x0 0x0 0x0 0x0 0x0 0x0
DEBUG:pymodbus.factory:Factory Response[ReadHoldingRegistersResponse: 3]
DEBUG:pymodbus.framer.rtu_framer:Frame advanced, resetting header!!
DEBUG:pymodbus.transaction:Adding transaction 60
DEBUG:pymodbus.transaction:Changing transaction state from 'PROCESSING REPLY' to 'TRANSACTION_COMPLETE'
DEBUG:pymodbus.transaction:Current transaction state - TRANSACTION_COMPLETE
DEBUG:pymodbus.transaction:Running transaction 61
DEBUG:pymodbus.transaction:SEND: 0x1 0x3 0x3 0xf2 0x0 0x6 0x64 0x7f
DEBUG:pymodbus.framer.rtu_framer:Changing state to IDLE - Last Frame End - 1548902751.8, Current Time stamp - 1548902752.75
DEBUG:pymodbus.client.sync:New Transaction state 'SENDING'
DEBUG:pymodbus.transaction:Changing transaction state from 'SENDING' to 'WAITING FOR REPLY'
DEBUG:pymodbus.transaction:Changing transaction state from 'WAITING FOR REPLY' to 'PROCESSING REPLY'
DEBUG:pymodbus.transaction:RECV: 0x1 0x3 0xc 0xb3 0x2a 0x42 0x9b 0x6f 0x53 0x41 0x1e 0x0 0x0 0x0 0x0 0xa1 0x4
DEBUG:pymodbus.framer.rtu_framer:Getting Frame - 0x3 0xc 0xb3 0x2a 0x42 0x9b 0x6f 0x53 0x41 0x1e 0x0 0x0 0x0 0x0
DEBUG:pymodbus.factory:Factory Response[ReadHoldingRegistersResponse: 3]
DEBUG:pymodbus.framer.rtu_framer:Frame advanced, resetting header!!
DEBUG:pymodbus.transaction:Adding transaction 61
DEBUG:pymodbus.transaction:Changing transaction state from 'PROCESSING REPLY' to 'TRANSACTION_COMPLETE'
DEBUG:pymodbus.transaction:Current transaction state - TRANSACTION_COMPLETE
DEBUG:pymodbus.transaction:Running transaction 62
DEBUG:pymodbus.transaction:SEND: 0x1 0x3 0x4 0x7c 0x0 0x6 0x5 0x20
DEBUG:pymodbus.framer.rtu_framer:Changing state to IDLE - Last Frame End - 1548902752.77, Current Time stamp - 1548902752.78
DEBUG:pymodbus.client.sync:New Transaction state 'SENDING'
DEBUG:pymodbus.transaction:Changing transaction state from 'SENDING' to 'WAITING FOR REPLY'
DEBUG:pymodbus.transaction:Changing transaction state from 'WAITING FOR REPLY' to 'PROCESSING REPLY'
DEBUG:pymodbus.transaction:RECV: 0x1 0x3 0xc 0x0 0x0 0x0 0x0 0x0 0x0 0x0 0x0 0x0 0x0 0x0 0x0 0x93 0x70
DEBUG:pymodbus.framer.rtu_framer:Getting Frame - 0x3 0xc 0x0 0x0 0x0 0x0 0x0 0x0 0x0 0x0 0x0 0x0 0x0 0x0
DEBUG:pymodbus.factory:Factory Response[ReadHoldingRegistersResponse: 3]
DEBUG:pymodbus.framer.rtu_framer:Frame advanced, resetting header!!
DEBUG:pymodbus.transaction:Adding transaction 62
DEBUG:pymodbus.transaction:Changing transaction state from 'PROCESSING REPLY' to 'TRANSACTION_COMPLETE'
DEBUG:pymodbus.transaction:Current transaction state - TRANSACTION_COMPLETE
DEBUG:pymodbus.transaction:Running transaction 63
DEBUG:pymodbus.transaction:SEND: 0x1 0x3 0x3 0xf2 0x0 0x6 0x64 0x7f
DEBUG:pymodbus.framer.rtu_framer:Changing state to IDLE - Last Frame End - 1548902752.8, Current Time stamp - 1548902753.75
DEBUG:pymodbus.client.sync:New Transaction state 'SENDING'
DEBUG:pymodbus.transaction:Changing transaction state from 'SENDING' to 'WAITING FOR REPLY'
DEBUG:pymodbus.transaction:Changing transaction state from 'WAITING FOR REPLY' to 'PROCESSING REPLY'
DEBUG:pymodbus.transaction:RECV: 0x1 0x3 0xc 0xcc 0x72 0x42 0x9a 0xae 0x82 0x41 0x4c 0x0 0x0 0x0 0x0 0x67 0xc3
DEBUG:pymodbus.framer.rtu_framer:Getting Frame - 0x3 0xc 0xcc 0x72 0x42 0x9a 0xae 0x82 0x41 0x4c 0x0 0x0 0x0 0x0
DEBUG:pymodbus.factory:Factory Response[ReadHoldingRegistersResponse: 3]
DEBUG:pymodbus.framer.rtu_framer:Frame advanced, resetting header!!
DEBUG:pymodbus.transaction:Adding transaction 63
DEBUG:pymodbus.transaction:Changing transaction state from 'PROCESSING REPLY' to 'TRANSACTION_COMPLETE'
DEBUG:pymodbus.transaction:Current transaction state - TRANSACTION_COMPLETE
DEBUG:pymodbus.transaction:Running transaction 64
DEBUG:pymodbus.transaction:SEND: 0x1 0x3 0x4 0x7c 0x0 0x6 0x5 0x20
DEBUG:pymodbus.framer.rtu_framer:Changing state to IDLE - Last Frame End - 1548902753.78, Current Time stamp - 1548902753.78
DEBUG:pymodbus.client.sync:New Transaction state 'SENDING'
DEBUG:pymodbus.transaction:Changing transaction state from 'SENDING' to 'WAITING FOR REPLY'
DEBUG:pymodbus.transaction:Changing transaction state from 'WAITING FOR REPLY' to 'PROCESSING REPLY'
DEBUG:pymodbus.transaction:RECV: 0x1 0x3 0xc 0x0 0x0 0x0 0x0 0x0 0x0 0x0 0x0 0x0 0x0 0x0 0x0 0x93 0x70
DEBUG:pymodbus.framer.rtu_framer:Getting Frame - 0x3 0xc 0x0 0x0 0x0 0x0 0x0 0x0 0x0 0x0 0x0 0x0 0x0 0x0
DEBUG:pymodbus.factory:Factory Response[ReadHoldingRegistersResponse: 3]
DEBUG:pymodbus.framer.rtu_framer:Frame advanced, resetting header!!
DEBUG:pymodbus.transaction:Adding transaction 64
DEBUG:pymodbus.transaction:Changing transaction state from 'PROCESSING REPLY' to 'TRANSACTION_COMPLETE'
DEBUG:pymodbus.transaction:Current transaction state - TRANSACTION_COMPLETE
DEBUG:pymodbus.transaction:Running transaction 65
DEBUG:pymodbus.transaction:SEND: 0x1 0x3 0x3 0xf2 0x0 0x6 0x64 0x7f
DEBUG:pymodbus.framer.rtu_framer:Changing state to IDLE - Last Frame End - 1548902753.81, Current Time stamp - 1548902754.75
DEBUG:pymodbus.client.sync:New Transaction state 'SENDING'
DEBUG:pymodbus.transaction:Changing transaction state from 'SENDING' to 'WAITING FOR REPLY'
DEBUG:pymodbus.transaction:Changing transaction state from 'WAITING FOR REPLY' to 'PROCESSING REPLY'
DEBUG:pymodbus.transaction:RECV: 0x1 0x3 0xc 0xc5 0x60 0x42 0x9b 0x88 0x56 0x41 0x13 0x0 0x0 0x0 0x0 0xab 0x5
DEBUG:pymodbus.framer.rtu_framer:Getting Frame - 0x3 0xc 0xc5 0x60 0x42 0x9b 0x88 0x56 0x41 0x13 0x0 0x0 0x0 0x0
DEBUG:pymodbus.factory:Factory Response[ReadHoldingRegistersResponse: 3]
DEBUG:pymodbus.framer.rtu_framer:Frame advanced, resetting header!!
DEBUG:pymodbus.transaction:Adding transaction 65
DEBUG:pymodbus.transaction:Changing transaction state from 'PROCESSING REPLY' to 'TRANSACTION_COMPLETE'
DEBUG:pymodbus.transaction:Current transaction state - TRANSACTION_COMPLETE
DEBUG:pymodbus.transaction:Running transaction 66
DEBUG:pymodbus.transaction:SEND: 0x1 0x3 0x4 0x7c 0x0 0x6 0x5 0x20
DEBUG:pymodbus.framer.rtu_framer:Changing state to IDLE - Last Frame End - 1548902754.78, Current Time stamp - 1548902754.78
DEBUG:pymodbus.client.sync:New Transaction state 'SENDING'
DEBUG:pymodbus.transaction:Changing transaction state from 'SENDING' to 'WAITING FOR REPLY'
DEBUG:pymodbus.transaction:Changing transaction state from 'WAITING FOR REPLY' to 'PROCESSING REPLY'
DEBUG:pymodbus.transaction:RECV: 0x1 0x3 0xc 0x0 0x0 0x0 0x0 0x0 0x0 0x0 0x0 0x0 0x0 0x0 0x0 0x93 0x70
DEBUG:pymodbus.framer.rtu_framer:Getting Frame - 0x3 0xc 0x0 0x0 0x0 0x0 0x0 0x0 0x0 0x0 0x0 0x0 0x0 0x0
DEBUG:pymodbus.factory:Factory Response[ReadHoldingRegistersResponse: 3]
DEBUG:pymodbus.framer.rtu_framer:Frame advanced, resetting header!!
DEBUG:pymodbus.transaction:Adding transaction 66
DEBUG:pymodbus.transaction:Changing transaction state from 'PROCESSING REPLY' to 'TRANSACTION_COMPLETE'
DEBUG:pymodbus.transaction:Current transaction state - TRANSACTION_COMPLETE
DEBUG:pymodbus.transaction:Running transaction 67
DEBUG:pymodbus.transaction:SEND: 0x1 0x3 0x3 0xf2 0x0 0x6 0x64 0x7f
DEBUG:pymodbus.framer.rtu_framer:Changing state to IDLE - Last Frame End - 1548902754.81, Current Time stamp - 1548902755.75
DEBUG:pymodbus.client.sync:New Transaction state 'SENDING'
DEBUG:pymodbus.transaction:Changing transaction state from 'SENDING' to 'WAITING FOR REPLY'
DEBUG:pymodbus.transaction:Changing transaction state from 'WAITING FOR REPLY' to 'PROCESSING REPLY'
DEBUG:pymodbus.transaction:RECV: 0x1 0x3 0xc 0xfe 0x3 0x42 0x99 0x65 0x4b 0x41 0x4a 0x0 0x0 0x0 0x0 0xf8 0x66
DEBUG:pymodbus.framer.rtu_framer:Getting Frame - 0x3 0xc 0xfe 0x3 0x42 0x99 0x65 0x4b 0x41 0x4a 0x0 0x0 0x0 0x0
DEBUG:pymodbus.factory:Factory Response[ReadHoldingRegistersResponse: 3]
DEBUG:pymodbus.framer.rtu_framer:Frame advanced, resetting header!!
DEBUG:pymodbus.transaction:Adding transaction 67
DEBUG:pymodbus.transaction:Changing transaction state from 'PROCESSING REPLY' to 'TRANSACTION_COMPLETE'
DEBUG:pymodbus.transaction:Current transaction state - TRANSACTION_COMPLETE
DEBUG:pymodbus.transaction:Running transaction 68
DEBUG:pymodbus.transaction:SEND: 0x1 0x3 0x4 0x7c 0x0 0x6 0x5 0x20
DEBUG:pymodbus.framer.rtu_framer:Changing state to IDLE - Last Frame End - 1548902755.78, Current Time stamp - 1548902755.78
DEBUG:pymodbus.client.sync:New Transaction state 'SENDING'
DEBUG:pymodbus.transaction:Changing transaction state from 'SENDING' to 'WAITING FOR REPLY'
DEBUG:pymodbus.transaction:Changing transaction state from 'WAITING FOR REPLY' to 'PROCESSING REPLY'
DEBUG:pymodbus.transaction:RECV: 0x1 0x3 0xc 0x0 0x0 0x0 0x0 0x0 0x0 0x0 0x0 0x0 0x0 0x0 0x0 0x93 0x70
DEBUG:pymodbus.framer.rtu_framer:Getting Frame - 0x3 0xc 0x0 0x0 0x0 0x0 0x0 0x0 0x0 0x0 0x0 0x0 0x0 0x0
DEBUG:pymodbus.factory:Factory Response[ReadHoldingRegistersResponse: 3]
DEBUG:pymodbus.framer.rtu_framer:Frame advanced, resetting header!!
DEBUG:pymodbus.transaction:Adding transaction 68
DEBUG:pymodbus.transaction:Changing transaction state from 'PROCESSING REPLY' to 'TRANSACTION_COMPLETE'
DEBUG:pymodbus.transaction:Current transaction state - TRANSACTION_COMPLETE
DEBUG:pymodbus.transaction:Running transaction 69
DEBUG:pymodbus.transaction:SEND: 0x1 0x3 0x3 0xf2 0x0 0x6 0x64 0x7f
DEBUG:pymodbus.framer.rtu_framer:Changing state to IDLE - Last Frame End - 1548902755.81, Current Time stamp - 1548902756.75
DEBUG:pymodbus.client.sync:New Transaction state 'SENDING'
DEBUG:pymodbus.transaction:Changing transaction state from 'SENDING' to 'WAITING FOR REPLY'
DEBUG:pymodbus.transaction:Changing transaction state from 'WAITING FOR REPLY' to 'PROCESSING REPLY'
DEBUG:pymodbus.transaction:RECV: 0x1 0x3 0xc 0x52 0x5 0x42 0x9b 0x5e 0xd 0x41 0x10 0x0 0x0 0x0 0x0 0x51 0x31
DEBUG:pymodbus.framer.rtu_framer:Getting Frame - 0x3 0xc 0x52 0x5 0x42 0x9b 0x5e 0xd 0x41 0x10 0x0 0x0 0x0 0x0
DEBUG:pymodbus.factory:Factory Response[ReadHoldingRegistersResponse: 3]
DEBUG:pymodbus.framer.rtu_framer:Frame advanced, resetting header!!
DEBUG:pymodbus.transaction:Adding transaction 69
DEBUG:pymodbus.transaction:Changing transaction state from 'PROCESSING REPLY' to 'TRANSACTION_COMPLETE'
DEBUG:pymodbus.transaction:Current transaction state - TRANSACTION_COMPLETE
DEBUG:pymodbus.transaction:Running transaction 70
DEBUG:pymodbus.transaction:SEND: 0x1 0x3 0x4 0x7c 0x0 0x6 0x5 0x20
DEBUG:pymodbus.framer.rtu_framer:Changing state to IDLE - Last Frame End - 1548902756.78, Current Time stamp - 1548902756.78
DEBUG:pymodbus.client.sync:New Transaction state 'SENDING'
DEBUG:pymodbus.transaction:Changing transaction state from 'SENDING' to 'WAITING FOR REPLY'
DEBUG:pymodbus.transaction:Changing transaction state from 'WAITING FOR REPLY' to 'PROCESSING REPLY'
DEBUG:pymodbus.transaction:RECV: 0x1 0x3 0xc 0x0 0x0 0x0 0x0 0x0 0x0 0x0 0x0 0x0 0x0 0x0 0x0 0x93 0x70
DEBUG:pymodbus.framer.rtu_framer:Getting Frame - 0x3 0xc 0x0 0x0 0x0 0x0 0x0 0x0 0x0 0x0 0x0 0x0 0x0 0x0
DEBUG:pymodbus.factory:Factory Response[ReadHoldingRegistersResponse: 3]
DEBUG:pymodbus.framer.rtu_framer:Frame advanced, resetting header!!
DEBUG:pymodbus.transaction:Adding transaction 70
DEBUG:pymodbus.transaction:Changing transaction state from 'PROCESSING REPLY' to 'TRANSACTION_COMPLETE'
DEBUG:pymodbus.transaction:Current transaction state - TRANSACTION_COMPLETE
DEBUG:pymodbus.transaction:Running transaction 71
DEBUG:pymodbus.transaction:SEND: 0x1 0x3 0x3 0xf2 0x0 0x6 0x64 0x7f
DEBUG:pymodbus.framer.rtu_framer:Changing state to IDLE - Last Frame End - 1548902756.81, Current Time stamp - 1548902757.75
DEBUG:pymodbus.client.sync:New Transaction state 'SENDING'
DEBUG:pymodbus.transaction:Changing transaction state from 'SENDING' to 'WAITING FOR REPLY'
DEBUG:pymodbus.transaction:Changing transaction state from 'WAITING FOR REPLY' to 'PROCESSING REPLY'
DEBUG:pymodbus.transaction:RECV: 0x1 0x3 0xc 0x35 0xa8 0x42 0x99 0x67 0x23 0x41 0x27 0x0 0x0 0x0 0x0 0xfc 0xc
DEBUG:pymodbus.framer.rtu_framer:Getting Frame - 0x3 0xc 0x35 0xa8 0x42 0x99 0x67 0x23 0x41 0x27 0x0 0x0 0x0 0x0
DEBUG:pymodbus.factory:Factory Response[ReadHoldingRegistersResponse: 3]
DEBUG:pymodbus.framer.rtu_framer:Frame advanced, resetting header!!
DEBUG:pymodbus.transaction:Adding transaction 71
DEBUG:pymodbus.transaction:Changing transaction state from 'PROCESSING REPLY' to 'TRANSACTION_COMPLETE'
DEBUG:pymodbus.transaction:Current transaction state - TRANSACTION_COMPLETE
DEBUG:pymodbus.transaction:Running transaction 72
DEBUG:pymodbus.transaction:SEND: 0x1 0x3 0x4 0x7c 0x0 0x6 0x5 0x20
DEBUG:pymodbus.framer.rtu_framer:Changing state to IDLE - Last Frame End - 1548902757.78, Current Time stamp - 1548902757.78
DEBUG:pymodbus.client.sync:New Transaction state 'SENDING'
DEBUG:pymodbus.transaction:Changing transaction state from 'SENDING' to 'WAITING FOR REPLY'
DEBUG:pymodbus.transaction:Changing transaction state from 'WAITING FOR REPLY' to 'PROCESSING REPLY'
DEBUG:pymodbus.transaction:RECV: 0x1 0x3 0xc 0x0 0x0 0x0 0x0 0x0 0x0 0x0 0x0 0x0 0x0 0x0 0x0 0x93 0x70
DEBUG:pymodbus.framer.rtu_framer:Getting Frame - 0x3 0xc 0x0 0x0 0x0 0x0 0x0 0x0 0x0 0x0 0x0 0x0 0x0 0x0
DEBUG:pymodbus.factory:Factory Response[ReadHoldingRegistersResponse: 3]
DEBUG:pymodbus.framer.rtu_framer:Frame advanced, resetting header!!
DEBUG:pymodbus.transaction:Adding transaction 72
DEBUG:pymodbus.transaction:Changing transaction state from 'PROCESSING REPLY' to 'TRANSACTION_COMPLETE'
DEBUG:pymodbus.transaction:Current transaction state - TRANSACTION_COMPLETE
DEBUG:pymodbus.transaction:Running transaction 73
DEBUG:pymodbus.transaction:SEND: 0x1 0x3 0x3 0xf2 0x0 0x6 0x64 0x7f
DEBUG:pymodbus.framer.rtu_framer:Changing state to IDLE - Last Frame End - 1548902757.81, Current Time stamp - 1548902758.76
DEBUG:pymodbus.client.sync:New Transaction state 'SENDING'
DEBUG:pymodbus.transaction:Changing transaction state from 'SENDING' to 'WAITING FOR REPLY'
DEBUG:pymodbus.transaction:Changing transaction state from 'WAITING FOR REPLY' to 'PROCESSING REPLY'
DEBUG:pymodbus.transaction:RECV: 0x1 0x3 0xc 0xea 0xce 0x42 0x9a 0x4d 0xad 0x41 0x22 0x0 0x0 0x0 0x0 0xfe 0xb0
DEBUG:pymodbus.framer.rtu_framer:Getting Frame - 0x3 0xc 0xea 0xce 0x42 0x9a 0x4d 0xad 0x41 0x22 0x0 0x0 0x0 0x0
DEBUG:pymodbus.factory:Factory Response[ReadHoldingRegistersResponse: 3]
DEBUG:pymodbus.framer.rtu_framer:Frame advanced, resetting header!!
DEBUG:pymodbus.transaction:Adding transaction 73
DEBUG:pymodbus.transaction:Changing transaction state from 'PROCESSING REPLY' to 'TRANSACTION_COMPLETE'
DEBUG:pymodbus.transaction:Current transaction state - TRANSACTION_COMPLETE
DEBUG:pymodbus.transaction:Running transaction 74
DEBUG:pymodbus.transaction:SEND: 0x1 0x3 0x4 0x7c 0x0 0x6 0x5 0x20
DEBUG:pymodbus.framer.rtu_framer:Changing state to IDLE - Last Frame End - 1548902758.78, Current Time stamp - 1548902758.79
DEBUG:pymodbus.client.sync:New Transaction state 'SENDING'
DEBUG:pymodbus.transaction:Changing transaction state from 'SENDING' to 'WAITING FOR REPLY'
DEBUG:pymodbus.transaction:Changing transaction state from 'WAITING FOR REPLY' to 'PROCESSING REPLY'
DEBUG:pymodbus.transaction:RECV: 0x1 0x3 0xc 0x0 0x0 0x0 0x0 0x0 0x0 0x0 0x0 0x0 0x0 0x0 0x0 0x93 0x70
DEBUG:pymodbus.framer.rtu_framer:Getting Frame - 0x3 0xc 0x0 0x0 0x0 0x0 0x0 0x0 0x0 0x0 0x0 0x0 0x0 0x0
DEBUG:pymodbus.factory:Factory Response[ReadHoldingRegistersResponse: 3]
DEBUG:pymodbus.framer.rtu_framer:Frame advanced, resetting header!!
DEBUG:pymodbus.transaction:Adding transaction 74
DEBUG:pymodbus.transaction:Changing transaction state from 'PROCESSING REPLY' to 'TRANSACTION_COMPLETE'
DEBUG:pymodbus.transaction:Current transaction state - TRANSACTION_COMPLETE
DEBUG:pymodbus.transaction:Running transaction 75
DEBUG:pymodbus.transaction:SEND: 0x1 0x3 0x3 0xf2 0x0 0x6 0x64 0x7f
DEBUG:pymodbus.framer.rtu_framer:Changing state to IDLE - Last Frame End - 1548902758.81, Current Time stamp - 1548902759.76
DEBUG:pymodbus.client.sync:New Transaction state 'SENDING'
DEBUG:pymodbus.transaction:Changing transaction state from 'SENDING' to 'WAITING FOR REPLY'
DEBUG:pymodbus.transaction:Changing transaction state from 'WAITING FOR REPLY' to 'PROCESSING REPLY'
DEBUG:pymodbus.transaction:RECV: 0x1 0x3 0xc 0x6a 0x4e 0x42 0x9b 0xa7 0xb5 0x41 0x22 0x0 0x0 0x0 0x0 0x4e 0xaa
DEBUG:pymodbus.framer.rtu_framer:Getting Frame - 0x3 0xc 0x6a 0x4e 0x42 0x9b 0xa7 0xb5 0x41 0x22 0x0 0x0 0x0 0x0
DEBUG:pymodbus.factory:Factory Response[ReadHoldingRegistersResponse: 3]
DEBUG:pymodbus.framer.rtu_framer:Frame advanced, resetting header!!
DEBUG:pymodbus.transaction:Adding transaction 75
DEBUG:pymodbus.transaction:Changing transaction state from 'PROCESSING REPLY' to 'TRANSACTION_COMPLETE'
DEBUG:pymodbus.transaction:Current transaction state - TRANSACTION_COMPLETE
DEBUG:pymodbus.transaction:Running transaction 76
DEBUG:pymodbus.transaction:SEND: 0x1 0x3 0x4 0x7c 0x0 0x6 0x5 0x20
DEBUG:pymodbus.framer.rtu_framer:Changing state to IDLE - Last Frame End - 1548902759.78, Current Time stamp - 1548902759.79
DEBUG:pymodbus.client.sync:New Transaction state 'SENDING'
DEBUG:pymodbus.transaction:Changing transaction state from 'SENDING' to 'WAITING FOR REPLY'
DEBUG:pymodbus.transaction:Changing transaction state from 'WAITING FOR REPLY' to 'PROCESSING REPLY'
DEBUG:pymodbus.transaction:RECV: 0x1 0x3 0xc 0x0 0x0 0x0 0x0 0x0 0x0 0x0 0x0 0x0 0x0 0x0 0x0 0x93 0x70
DEBUG:pymodbus.framer.rtu_framer:Getting Frame - 0x3 0xc 0x0 0x0 0x0 0x0 0x0 0x0 0x0 0x0 0x0 0x0 0x0 0x0
DEBUG:pymodbus.factory:Factory Response[ReadHoldingRegistersResponse: 3]
DEBUG:pymodbus.framer.rtu_framer:Frame advanced, resetting header!!
DEBUG:pymodbus.transaction:Adding transaction 76
DEBUG:pymodbus.transaction:Changing transaction state from 'PROCESSING REPLY' to 'TRANSACTION_COMPLETE'
DEBUG:pymodbus.transaction:Current transaction state - TRANSACTION_COMPLETE
DEBUG:pymodbus.transaction:Running transaction 77
DEBUG:pymodbus.transaction:SEND: 0x1 0x3 0x3 0xf2 0x0 0x6 0x64 0x7f
DEBUG:pymodbus.framer.rtu_framer:Changing state to IDLE - Last Frame End - 1548902759.81, Current Time stamp - 1548902760.76
DEBUG:pymodbus.client.sync:New Transaction state 'SENDING'
DEBUG:pymodbus.transaction:Changing transaction state from 'SENDING' to 'WAITING FOR REPLY'
DEBUG:pymodbus.transaction:Changing transaction state from 'WAITING FOR REPLY' to 'PROCESSING REPLY'
DEBUG:pymodbus.transaction:RECV: 0x1 0x3 0xc 0x6a 0x4e 0x42 0x9b 0xa7 0xb5 0x41 0x22 0x0 0x0 0x0 0x0 0x4e 0xaa
DEBUG:pymodbus.framer.rtu_framer:Getting Frame - 0x3 0xc 0x6a 0x4e 0x42 0x9b 0xa7 0xb5 0x41 0x22 0x0 0x0 0x0 0x0
DEBUG:pymodbus.factory:Factory Response[ReadHoldingRegistersResponse: 3]
DEBUG:pymodbus.framer.rtu_framer:Frame advanced, resetting header!!
DEBUG:pymodbus.transaction:Adding transaction 77
DEBUG:pymodbus.transaction:Changing transaction state from 'PROCESSING REPLY' to 'TRANSACTION_COMPLETE'
DEBUG:pymodbus.transaction:Current transaction state - TRANSACTION_COMPLETE
DEBUG:pymodbus.transaction:Running transaction 78
DEBUG:pymodbus.transaction:SEND: 0x1 0x3 0x4 0x7c 0x0 0x6 0x5 0x20
DEBUG:pymodbus.framer.rtu_framer:Changing state to IDLE - Last Frame End - 1548902760.78, Current Time stamp - 1548902760.79
DEBUG:pymodbus.client.sync:New Transaction state 'SENDING'
DEBUG:pymodbus.transaction:Changing transaction state from 'SENDING' to 'WAITING FOR REPLY'
DEBUG:pymodbus.transaction:Changing transaction state from 'WAITING FOR REPLY' to 'PROCESSING REPLY'
DEBUG:pymodbus.transaction:RECV: 0x1 0x3 0xc 0x0 0x0 0x0 0x0 0x0 0x0 0x0 0x0 0x0 0x0 0x0 0x0 0x93 0x70
DEBUG:pymodbus.framer.rtu_framer:Getting Frame - 0x3 0xc 0x0 0x0 0x0 0x0 0x0 0x0 0x0 0x0 0x0 0x0 0x0 0x0
DEBUG:pymodbus.factory:Factory Response[ReadHoldingRegistersResponse: 3]
DEBUG:pymodbus.framer.rtu_framer:Frame advanced, resetting header!!
DEBUG:pymodbus.transaction:Adding transaction 78
DEBUG:pymodbus.transaction:Changing transaction state from 'PROCESSING REPLY' to 'TRANSACTION_COMPLETE'
DEBUG:pymodbus.transaction:Current transaction state - TRANSACTION_COMPLETE
DEBUG:pymodbus.transaction:Running transaction 79
DEBUG:pymodbus.transaction:SEND: 0x1 0x3 0x3 0xf2 0x0 0x6 0x64 0x7f
DEBUG:pymodbus.framer.rtu_framer:Changing state to IDLE - Last Frame End - 1548902760.81, Current Time stamp - 1548902761.76
DEBUG:pymodbus.client.sync:New Transaction state 'SENDING'
DEBUG:pymodbus.transaction:Changing transaction state from 'SENDING' to 'WAITING FOR REPLY'
DEBUG:pymodbus.transaction:Changing transaction state from 'WAITING FOR REPLY' to 'PROCESSING REPLY'
DEBUG:pymodbus.transaction:RECV: 0x1 0x3 0xc 0x64 0x3b 0x42 0x9b 0x97 0xc6 0x41 0x44 0x0 0x0 0x0 0x0 0x55 0xab
DEBUG:pymodbus.framer.rtu_framer:Getting Frame - 0x3 0xc 0x64 0x3b 0x42 0x9b 0x97 0xc6 0x41 0x44 0x0 0x0 0x0 0x0
DEBUG:pymodbus.factory:Factory Response[ReadHoldingRegistersResponse: 3]
DEBUG:pymodbus.framer.rtu_framer:Frame advanced, resetting header!!
DEBUG:pymodbus.transaction:Adding transaction 79
DEBUG:pymodbus.transaction:Changing transaction state from 'PROCESSING REPLY' to 'TRANSACTION_COMPLETE'
DEBUG:pymodbus.transaction:Current transaction state - TRANSACTION_COMPLETE
DEBUG:pymodbus.transaction:Running transaction 80
DEBUG:pymodbus.transaction:SEND: 0x1 0x3 0x4 0x7c 0x0 0x6 0x5 0x20
DEBUG:pymodbus.framer.rtu_framer:Changing state to IDLE - Last Frame End - 1548902761.78, Current Time stamp - 1548902761.79
DEBUG:pymodbus.client.sync:New Transaction state 'SENDING'
DEBUG:pymodbus.transaction:Changing transaction state from 'SENDING' to 'WAITING FOR REPLY'
DEBUG:pymodbus.transaction:Changing transaction state from 'WAITING FOR REPLY' to 'PROCESSING REPLY'
DEBUG:pymodbus.transaction:RECV: 0x1 0x3 0xc 0x0 0x0 0x0 0x0 0x0 0x0 0x0 0x0 0x0 0x0 0x0 0x0 0x93 0x70
DEBUG:pymodbus.framer.rtu_framer:Getting Frame - 0x3 0xc 0x0 0x0 0x0 0x0 0x0 0x0 0x0 0x0 0x0 0x0 0x0 0x0
DEBUG:pymodbus.factory:Factory Response[ReadHoldingRegistersResponse: 3]
DEBUG:pymodbus.framer.rtu_framer:Frame advanced, resetting header!!
DEBUG:pymodbus.transaction:Adding transaction 80
DEBUG:pymodbus.transaction:Changing transaction state from 'PROCESSING REPLY' to 'TRANSACTION_COMPLETE'
DEBUG:pymodbus.transaction:Current transaction state - TRANSACTION_COMPLETE
DEBUG:pymodbus.transaction:Running transaction 81
DEBUG:pymodbus.transaction:SEND: 0x1 0x3 0x3 0xf2 0x0 0x6 0x64 0x7f
DEBUG:pymodbus.framer.rtu_framer:Changing state to IDLE - Last Frame End - 1548902761.81, Current Time stamp - 1548902762.76
DEBUG:pymodbus.client.sync:New Transaction state 'SENDING'
DEBUG:pymodbus.transaction:Changing transaction state from 'SENDING' to 'WAITING FOR REPLY'
DEBUG:pymodbus.transaction:Changing transaction state from 'WAITING FOR REPLY' to 'PROCESSING REPLY'
DEBUG:pymodbus.transaction:RECV: 0x1 0x3 0xc 0x4d 0xf2 0x42 0x99 0x4b 0xd6 0x41 0x45 0x0 0x0 0x0 0x0 0x22 0xff
DEBUG:pymodbus.framer.rtu_framer:Getting Frame - 0x3 0xc 0x4d 0xf2 0x42 0x99 0x4b 0xd6 0x41 0x45 0x0 0x0 0x0 0x0
DEBUG:pymodbus.factory:Factory Response[ReadHoldingRegistersResponse: 3]
DEBUG:pymodbus.framer.rtu_framer:Frame advanced, resetting header!!
DEBUG:pymodbus.transaction:Adding transaction 81
DEBUG:pymodbus.transaction:Changing transaction state from 'PROCESSING REPLY' to 'TRANSACTION_COMPLETE'
DEBUG:pymodbus.transaction:Current transaction state - TRANSACTION_COMPLETE
DEBUG:pymodbus.transaction:Running transaction 82
DEBUG:pymodbus.transaction:SEND: 0x1 0x3 0x4 0x7c 0x0 0x6 0x5 0x20
DEBUG:pymodbus.framer.rtu_framer:Changing state to IDLE - Last Frame End - 1548902762.79, Current Time stamp - 1548902762.79
DEBUG:pymodbus.client.sync:New Transaction state 'SENDING'
DEBUG:pymodbus.transaction:Changing transaction state from 'SENDING' to 'WAITING FOR REPLY'
DEBUG:pymodbus.transaction:Changing transaction state from 'WAITING FOR REPLY' to 'PROCESSING REPLY'
DEBUG:pymodbus.transaction:RECV: 0x1 0x3 0xc 0x0 0x0 0x0 0x0 0x0 0x0 0x0 0x0 0x0 0x0 0x0 0x0 0x93 0x70
DEBUG:pymodbus.framer.rtu_framer:Getting Frame - 0x3 0xc 0x0 0x0 0x0 0x0 0x0 0x0 0x0 0x0 0x0 0x0 0x0 0x0
DEBUG:pymodbus.factory:Factory Response[ReadHoldingRegistersResponse: 3]
DEBUG:pymodbus.framer.rtu_framer:Frame advanced, resetting header!!
DEBUG:pymodbus.transaction:Adding transaction 82
DEBUG:pymodbus.transaction:Changing transaction state from 'PROCESSING REPLY' to 'TRANSACTION_COMPLETE'
DEBUG:pymodbus.transaction:Current transaction state - TRANSACTION_COMPLETE
DEBUG:pymodbus.transaction:Running transaction 83
DEBUG:pymodbus.transaction:SEND: 0x1 0x3 0x3 0xf2 0x0 0x6 0x64 0x7f
DEBUG:pymodbus.framer.rtu_framer:Changing state to IDLE - Last Frame End - 1548902762.82, Current Time stamp - 1548902763.77
DEBUG:pymodbus.client.sync:New Transaction state 'SENDING'
DEBUG:pymodbus.transaction:Changing transaction state from 'SENDING' to 'WAITING FOR REPLY'
DEBUG:pymodbus.transaction:Changing transaction state from 'WAITING FOR REPLY' to 'PROCESSING REPLY'
DEBUG:pymodbus.transaction:RECV: 0x1 0x3 0xc 0x58 0x16 0x42 0x9b 0x14 0xd9 0x41 0xe 0x0 0x0 0x0 0x0 0xaa 0xed
DEBUG:pymodbus.framer.rtu_framer:Getting Frame - 0x3 0xc 0x58 0x16 0x42 0x9b 0x14 0xd9 0x41 0xe 0x0 0x0 0x0 0x0
DEBUG:pymodbus.factory:Factory Response[ReadHoldingRegistersResponse: 3]
DEBUG:pymodbus.framer.rtu_framer:Frame advanced, resetting header!!
DEBUG:pymodbus.transaction:Adding transaction 83
DEBUG:pymodbus.transaction:Changing transaction state from 'PROCESSING REPLY' to 'TRANSACTION_COMPLETE'
DEBUG:pymodbus.transaction:Current transaction state - TRANSACTION_COMPLETE
DEBUG:pymodbus.transaction:Running transaction 84
DEBUG:pymodbus.transaction:SEND: 0x1 0x3 0x4 0x7c 0x0 0x6 0x5 0x20
DEBUG:pymodbus.framer.rtu_framer:Changing state to IDLE - Last Frame End - 1548902763.79, Current Time stamp - 1548902763.8
DEBUG:pymodbus.client.sync:New Transaction state 'SENDING'
DEBUG:pymodbus.transaction:Changing transaction state from 'SENDING' to 'WAITING FOR REPLY'
DEBUG:pymodbus.transaction:Changing transaction state from 'WAITING FOR REPLY' to 'PROCESSING REPLY'
DEBUG:pymodbus.transaction:RECV: 0x1 0x3 0xc 0x0 0x0 0x0 0x0 0x0 0x0 0x0 0x0 0x0 0x0 0x0 0x0 0x93 0x70
DEBUG:pymodbus.framer.rtu_framer:Getting Frame - 0x3 0xc 0x0 0x0 0x0 0x0 0x0 0x0 0x0 0x0 0x0 0x0 0x0 0x0
DEBUG:pymodbus.factory:Factory Response[ReadHoldingRegistersResponse: 3]
DEBUG:pymodbus.framer.rtu_framer:Frame advanced, resetting header!!
DEBUG:pymodbus.transaction:Adding transaction 84
DEBUG:pymodbus.transaction:Changing transaction state from 'PROCESSING REPLY' to 'TRANSACTION_COMPLETE'
DEBUG:pymodbus.transaction:Current transaction state - TRANSACTION_COMPLETE
DEBUG:pymodbus.transaction:Running transaction 85
DEBUG:pymodbus.transaction:SEND: 0x1 0x3 0x3 0xf2 0x0 0x6 0x64 0x7f
DEBUG:pymodbus.framer.rtu_framer:Changing state to IDLE - Last Frame End - 1548902763.82, Current Time stamp - 1548902764.76
DEBUG:pymodbus.client.sync:New Transaction state 'SENDING'
DEBUG:pymodbus.transaction:Changing transaction state from 'SENDING' to 'WAITING FOR REPLY'
DEBUG:pymodbus.transaction:Changing transaction state from 'WAITING FOR REPLY' to 'PROCESSING REPLY'
DEBUG:pymodbus.transaction:RECV: 0x1 0x3 0xc 0xaa 0x3 0x42 0x98 0x62 0x1f 0x41 0x3d 0x0 0x0 0x0 0x0 0x64 0xd1
DEBUG:pymodbus.framer.rtu_framer:Getting Frame - 0x3 0xc 0xaa 0x3 0x42 0x98 0x62 0x1f 0x41 0x3d 0x0 0x0 0x0 0x0
DEBUG:pymodbus.factory:Factory Response[ReadHoldingRegistersResponse: 3]
DEBUG:pymodbus.framer.rtu_framer:Frame advanced, resetting header!!
DEBUG:pymodbus.transaction:Adding transaction 85
DEBUG:pymodbus.transaction:Changing transaction state from 'PROCESSING REPLY' to 'TRANSACTION_COMPLETE'
DEBUG:pymodbus.transaction:Current transaction state - TRANSACTION_COMPLETE
DEBUG:pymodbus.transaction:Running transaction 86
DEBUG:pymodbus.transaction:SEND: 0x1 0x3 0x4 0x7c 0x0 0x6 0x5 0x20
DEBUG:pymodbus.framer.rtu_framer:Changing state to IDLE - Last Frame End - 1548902764.79, Current Time stamp - 1548902764.79
DEBUG:pymodbus.client.sync:New Transaction state 'SENDING'
DEBUG:pymodbus.transaction:Changing transaction state from 'SENDING' to 'WAITING FOR REPLY'
DEBUG:pymodbus.transaction:Changing transaction state from 'WAITING FOR REPLY' to 'PROCESSING REPLY'
DEBUG:pymodbus.transaction:RECV: 0x1 0x3 0xc 0xcf 0x3b 0xc0 0x1f 0x0 0x0 0x0 0x0 0x0 0x0 0x0 0x0 0xd7 0xd
DEBUG:pymodbus.framer.rtu_framer:Getting Frame - 0x3 0xc 0xcf 0x3b 0xc0 0x1f 0x0 0x0 0x0 0x0 0x0 0x0 0x0 0x0
DEBUG:pymodbus.factory:Factory Response[ReadHoldingRegistersResponse: 3]
DEBUG:pymodbus.framer.rtu_framer:Frame advanced, resetting header!!
DEBUG:pymodbus.transaction:Adding transaction 86
DEBUG:pymodbus.transaction:Changing transaction state from 'PROCESSING REPLY' to 'TRANSACTION_COMPLETE'
DEBUG:pymodbus.transaction:Current transaction state - TRANSACTION_COMPLETE
DEBUG:pymodbus.transaction:Running transaction 87
DEBUG:pymodbus.transaction:SEND: 0x1 0x3 0x3 0xf2 0x0 0x6 0x64 0x7f
DEBUG:pymodbus.framer.rtu_framer:Changing state to IDLE - Last Frame End - 1548902764.82, Current Time stamp - 1548902765.77
DEBUG:pymodbus.client.sync:New Transaction state 'SENDING'
DEBUG:pymodbus.transaction:Changing transaction state from 'SENDING' to 'WAITING FOR REPLY'
DEBUG:pymodbus.transaction:Changing transaction state from 'WAITING FOR REPLY' to 'PROCESSING REPLY'
DEBUG:pymodbus.transaction:RECV: 0x1 0x3 0xc 0xd7 0x96 0x42 0x9b 0x87 0xe4 0x41 0x3 0x0 0x0 0x0 0x0 0x9d 0x3e
DEBUG:pymodbus.framer.rtu_framer:Getting Frame - 0x3 0xc 0xd7 0x96 0x42 0x9b 0x87 0xe4 0x41 0x3 0x0 0x0 0x0 0x0
DEBUG:pymodbus.factory:Factory Response[ReadHoldingRegistersResponse: 3]
DEBUG:pymodbus.framer.rtu_framer:Frame advanced, resetting header!!
DEBUG:pymodbus.transaction:Adding transaction 87
DEBUG:pymodbus.transaction:Changing transaction state from 'PROCESSING REPLY' to 'TRANSACTION_COMPLETE'
DEBUG:pymodbus.transaction:Current transaction state - TRANSACTION_COMPLETE
DEBUG:pymodbus.transaction:Running transaction 88
DEBUG:pymodbus.transaction:SEND: 0x1 0x3 0x4 0x7c 0x0 0x6 0x5 0x20
DEBUG:pymodbus.framer.rtu_framer:Changing state to IDLE - Last Frame End - 1548902765.79, Current Time stamp - 1548902765.8
DEBUG:pymodbus.client.sync:New Transaction state 'SENDING'
DEBUG:pymodbus.transaction:Changing transaction state from 'SENDING' to 'WAITING FOR REPLY'
DEBUG:pymodbus.transaction:Changing transaction state from 'WAITING FOR REPLY' to 'PROCESSING REPLY'
DEBUG:pymodbus.transaction:RECV: 0x1 0x3 0xc 0xcf 0x3b 0xc0 0x1f 0x0 0x0 0x0 0x0 0x0 0x0 0x0 0x0 0xd7 0xd
DEBUG:pymodbus.framer.rtu_framer:Getting Frame - 0x3 0xc 0xcf 0x3b 0xc0 0x1f 0x0 0x0 0x0 0x0 0x0 0x0 0x0 0x0
DEBUG:pymodbus.factory:Factory Response[ReadHoldingRegistersResponse: 3]
DEBUG:pymodbus.framer.rtu_framer:Frame advanced, resetting header!!
DEBUG:pymodbus.transaction:Adding transaction 88
DEBUG:pymodbus.transaction:Changing transaction state from 'PROCESSING REPLY' to 'TRANSACTION_COMPLETE'
DEBUG:pymodbus.transaction:Current transaction state - TRANSACTION_COMPLETE
DEBUG:pymodbus.transaction:Running transaction 89
DEBUG:pymodbus.transaction:SEND: 0x1 0x3 0x3 0xf2 0x0 0x6 0x64 0x7f
DEBUG:pymodbus.framer.rtu_framer:Changing state to IDLE - Last Frame End - 1548902765.82, Current Time stamp - 1548902766.77
DEBUG:pymodbus.client.sync:New Transaction state 'SENDING'
DEBUG:pymodbus.transaction:Changing transaction state from 'SENDING' to 'WAITING FOR REPLY'
DEBUG:pymodbus.transaction:Changing transaction state from 'WAITING FOR REPLY' to 'PROCESSING REPLY'
DEBUG:pymodbus.transaction:RECV: 0x1 0x3 0xc 0xf8 0xf2 0x42 0x98 0x8a 0x9f 0x41 0x0 0x0 0x0 0x0 0x0 0xb9 0xca
DEBUG:pymodbus.framer.rtu_framer:Getting Frame - 0x3 0xc 0xf8 0xf2 0x42 0x98 0x8a 0x9f 0x41 0x0 0x0 0x0 0x0 0x0
DEBUG:pymodbus.factory:Factory Response[ReadHoldingRegistersResponse: 3]
DEBUG:pymodbus.framer.rtu_framer:Frame advanced, resetting header!!
DEBUG:pymodbus.transaction:Adding transaction 89
DEBUG:pymodbus.transaction:Changing transaction state from 'PROCESSING REPLY' to 'TRANSACTION_COMPLETE'
DEBUG:pymodbus.transaction:Current transaction state - TRANSACTION_COMPLETE
DEBUG:pymodbus.transaction:Running transaction 90
DEBUG:pymodbus.transaction:SEND: 0x1 0x3 0x4 0x7c 0x0 0x6 0x5 0x20
DEBUG:pymodbus.framer.rtu_framer:Changing state to IDLE - Last Frame End - 1548902766.79, Current Time stamp - 1548902766.8
DEBUG:pymodbus.client.sync:New Transaction state 'SENDING'
DEBUG:pymodbus.transaction:Changing transaction state from 'SENDING' to 'WAITING FOR REPLY'
DEBUG:pymodbus.transaction:Changing transaction state from 'WAITING FOR REPLY' to 'PROCESSING REPLY'
DEBUG:pymodbus.transaction:RECV: 0x1 0x3 0xc 0x1e 0xd2 0xc0 0x9d 0x0 0x0 0x0 0x0 0x0 0x0 0x0 0x0 0xe9 0x89
DEBUG:pymodbus.framer.rtu_framer:Getting Frame - 0x3 0xc 0x1e 0xd2 0xc0 0x9d 0x0 0x0 0x0 0x0 0x0 0x0 0x0 0x0
DEBUG:pymodbus.factory:Factory Response[ReadHoldingRegistersResponse: 3]
DEBUG:pymodbus.framer.rtu_framer:Frame advanced, resetting header!!
DEBUG:pymodbus.transaction:Adding transaction 90
DEBUG:pymodbus.transaction:Changing transaction state from 'PROCESSING REPLY' to 'TRANSACTION_COMPLETE'
DEBUG:pymodbus.transaction:Current transaction state - TRANSACTION_COMPLETE
DEBUG:pymodbus.transaction:Running transaction 91
DEBUG:pymodbus.transaction:SEND: 0x1 0x3 0x3 0xf2 0x0 0x6 0x64 0x7f
DEBUG:pymodbus.framer.rtu_framer:Changing state to IDLE - Last Frame End - 1548902766.82, Current Time stamp - 1548902767.77
DEBUG:pymodbus.client.sync:New Transaction state 'SENDING'
DEBUG:pymodbus.transaction:Changing transaction state from 'SENDING' to 'WAITING FOR REPLY'
DEBUG:pymodbus.transaction:Changing transaction state from 'WAITING FOR REPLY' to 'PROCESSING REPLY'
DEBUG:pymodbus.transaction:RECV: 0x1 0x3 0xc 0xb9 0x3c 0x42 0x9b 0x61 0xad 0x40 0xad 0x0 0x0 0x0 0x0 0x69 0x1c
DEBUG:pymodbus.framer.rtu_framer:Getting Frame - 0x3 0xc 0xb9 0x3c 0x42 0x9b 0x61 0xad 0x40 0xad 0x0 0x0 0x0 0x0
DEBUG:pymodbus.factory:Factory Response[ReadHoldingRegistersResponse: 3]
DEBUG:pymodbus.framer.rtu_framer:Frame advanced, resetting header!!
DEBUG:pymodbus.transaction:Adding transaction 91
DEBUG:pymodbus.transaction:Changing transaction state from 'PROCESSING REPLY' to 'TRANSACTION_COMPLETE'
DEBUG:pymodbus.transaction:Current transaction state - TRANSACTION_COMPLETE
DEBUG:pymodbus.transaction:Running transaction 92
DEBUG:pymodbus.transaction:SEND: 0x1 0x3 0x4 0x7c 0x0 0x6 0x5 0x20
DEBUG:pymodbus.framer.rtu_framer:Changing state to IDLE - Last Frame End - 1548902767.79, Current Time stamp - 1548902767.8
DEBUG:pymodbus.client.sync:New Transaction state 'SENDING'
DEBUG:pymodbus.transaction:Changing transaction state from 'SENDING' to 'WAITING FOR REPLY'
DEBUG:pymodbus.transaction:Changing transaction state from 'WAITING FOR REPLY' to 'PROCESSING REPLY'
DEBUG:pymodbus.transaction:RECV: 0x1 0x3 0xc 0x1e 0xd2 0xc0 0x9d 0x0 0x0 0x0 0x0 0x0 0x0 0x0 0x0 0xe9 0x89
DEBUG:pymodbus.framer.rtu_framer:Getting Frame - 0x3 0xc 0x1e 0xd2 0xc0 0x9d 0x0 0x0 0x0 0x0 0x0 0x0 0x0 0x0
DEBUG:pymodbus.factory:Factory Response[ReadHoldingRegistersResponse: 3]
DEBUG:pymodbus.framer.rtu_framer:Frame advanced, resetting header!!
DEBUG:pymodbus.transaction:Adding transaction 92
DEBUG:pymodbus.transaction:Changing transaction state from 'PROCESSING REPLY' to 'TRANSACTION_COMPLETE'
DEBUG:pymodbus.transaction:Current transaction state - TRANSACTION_COMPLETE
DEBUG:pymodbus.transaction:Running transaction 93
DEBUG:pymodbus.transaction:SEND: 0x1 0x3 0x3 0xf2 0x0 0x6 0x64 0x7f
DEBUG:pymodbus.framer.rtu_framer:Changing state to IDLE - Last Frame End - 1548902767.82, Current Time stamp - 1548902768.77
DEBUG:pymodbus.client.sync:New Transaction state 'SENDING'
DEBUG:pymodbus.transaction:Changing transaction state from 'SENDING' to 'WAITING FOR REPLY'
